(1595875026.902836) can0 57F#00A2A2A2A2A2A2A2
(1595875026.965260) can0 568#0000FFFF7123A2A2
(1595875026.965481) can0 548#000001000000A2A2
(1595875026.965839) can0 578#0906B7C000A2A2A2
(1595875026.966146) can0 58F#8002A2A2A2A2A2A2
(1595875027.065179) can0 568#0000FFFF7123A2A2
(1595875027.065465) can0 548#000001000000A2A2
(1595875027.065751) can0 578#0906B7C000A2A2A2
(1595875027.066065) can0 58F#8002A2A2A2A2A2A2
(1595875027.165136) can0 568#0000FFFF7123A2A2
(1595875027.165425) can0 548#000001000000A2A2
(1595875027.165715) can0 578#0906B7C000A2A2A2
(1595875027.166050) can0 58F#8002A2A2A2A2A2A2
(1595875027.178495) can0 5B8#1081818181818181
(1595875027.265130) can0 568#0000FFFF7123A2A2
(1595875027.265419) can0 548#000001000000A2A2
(1595875027.265705) can0 578#0906B7C000A2A2A2
(1595875027.266024) can0 58F#8002A2A2A2A2A2A2
(1595875027.365144) can0 568#0000FFFF7123A2A2
(1595875027.365432) can0 548#000001000000A2A2
(1595875027.365748) can0 578#0906B7C000A2A2A2
(1595875027.366035) can0 58F#8002A2A2A2A2A2A2
(1595875027.366321) can0 558#C1FF3B00CF07A2A2
(1595875027.366651) can0 588#03FF32000000A2A2
(1595875027.402728) can0 57F#00A2A2A2A2A2A2A2
(1595875027.465111) can0 568#0000FFFF7123A2A2
(1595875027.465313) can0 548#000001000000A2A2
(1595875027.465673) can0 578#0906B7C000A2A2A2
(1595875027.465990) can0 58F#8002A2A2A2A2A2A2
(1595875027.565082) can0 568#0000FFFF7123A2A2
(1595875027.565369) can0 548#000001000000A2A2
(1595875027.565658) can0 578#0906B7C000A2A2A2
(1595875027.565987) can0 58F#8002A2A2A2A2A2A2
(1595875027.665047) can0 568#0000FFFF7123A2A2
(1595875027.665336) can0 548#000001000000A2A2
(1595875027.665623) can0 578#0906B7C000A2A2A2
(1595875027.665934) can0 58F#8002A2A2A2A2A2A2
(1595875027.678503) can0 5B8#1081818181818181
(1595875027.765036) can0 568#0000FFFF7123A2A2
(1595875027.765324) can0 548#000001000000A2A2
(1595875027.765611) can0 578#0906B7C000A2A2A2
(1595875027.765942) can0 58F#8002A2A2A2A2A2A2
(1595875027.865034) can0 568#0000FFFF7123A2A2
(1595875027.865327) can0 548#000001000000A2A2
(1595875027.865616) can0 578#0906B7C000A2A2A2
(1595875027.865935) can0 58F#8002A2A2A2A2A2A2
(1595875027.866221) can0 558#C1FF3B00CF07A2A2
(1595875027.866542) can0 588#03FF32000000A2A2
(1595875027.902638) can0 57F#00A2A2A2A2A2A2A2
(1595875027.965007) can0 568#0000FFFF7123A2A2
(1595875027.965293) can0 548#000001000000A2A2
(1595875027.965608) can0 578#0906B7C000A2A2A2
(1595875027.965894) can0 58F#8002A2A2A2A2A2A2
(1595875028.064976) can0 568#0000FFFF7123A2A2
(1595875028.065262) can0 548#000001000000A2A2
(1595875028.065629) can0 578#0906B7C000A2A2A2
(1595875028.065946) can0 58F#8002A2A2A2A2A2A2
(1595875028.164982) can0 568#0000FFFF7123A2A2
(1595875028.165273) can0 548#000001000000A2A2
(1595875028.165558) can0 578#0906B7C000A2A2A2
(1595875028.165845) can0 58F#8002A2A2A2A2A2A2
(1595875028.178536) can0 5B8#1081818181818181
(1595875028.264931) can0 568#0000FFFF7123A2A2
(1595875028.265219) can0 548#000001000000A2A2
(1595875028.265533) can0 578#0906B7C000A2A2A2
(1595875028.265819) can0 58F#8002A2A2A2A2A2A2
(1595875028.364929) can0 568#0000FFFF7123A2A2
(1595875028.365217) can0 548#000001000000A2A2
(1595875028.365503) can0 578#0906B7C000A2A2A2
(1595875028.365818) can0 58F#8002A2A2A2A2A2A2
(1595875028.366123) can0 558#C1FF3B00CF07A2A2
(1595875028.366463) can0 588#03FF32000000A2A2
(1595875028.402534) can0 57F#00A2A2A2A2A2A2A2
(1595875028.464884) can0 568#0000FFFF7123A2A2
(1595875028.465192) can0 548#000001000000A2A2
(1595875028.465415) can0 578#0906B7C000A2A2A2
(1595875028.465754) can0 58F#8002A2A2A2A2A2A2
(1595875028.564900) can0 568#0000FFFF7123A2A2
(1595875028.565202) can0 548#000001000000A2A2
(1595875028.565490) can0 578#0906B7C000A2A2A2
(1595875028.565779) can0 58F#8002A2A2A2A2A2A2
(1595875028.664892) can0 568#0000FFFF7123A2A2
(1595875028.665278) can0 548#000001000000A2A2
(1595875028.665571) can0 578#0906B7C000A2A2A2
(1595875028.666021) can0 58F#8002A2A2A2A2A2A2
(1595875028.678575) can0 5B8#1081818181818181
(1595875028.764855) can0 568#0000FFFF7123A2A2
(1595875028.765153) can0 548#000001000000A2A2
(1595875028.765442) can0 578#0906B7C000A2A2A2
(1595875028.765775) can0 58F#8002A2A2A2A2A2A2
(1595875028.864840) can0 568#0000FFFF7123A2A2
(1595875028.865133) can0 548#000001000000A2A2
(1595875028.865422) can0 578#0906B7C000A2A2A2
(1595875028.865758) can0 58F#8002A2A2A2A2A2A2
(1595875028.866049) can0 558#C1FF3B00CF07A2A2
(1595875028.866373) can0 588#03FF32000000A2A2
(1595875028.902507) can0 57F#00A2A2A2A2A2A2A2
(1595875028.964812) can0 568#0000FFFF7123A2A2
(1595875028.965185) can0 548#000001000000A2A2
(1595875028.965472) can0 578#0906B7C000A2A2A2
(1595875028.965800) can0 58F#8002A2A2A2A2A2A2
(1595875029.064773) can0 568#0000FFFF7123A2A2
(1595875029.064983) can0 548#000001000000A2A2
(1595875029.065357) can0 578#0906B7C000A2A2A2
(1595875029.065693) can0 58F#8002A2A2A2A2A2A2
(1595875029.164777) can0 568#0000FFFF7123A2A2
(1595875029.165067) can0 548#000001000000A2A2
(1595875029.165356) can0 578#0906B7C000A2A2A2
(1595875029.165645) can0 58F#8002A2A2A2A2A2A2
(1595875029.178649) can0 5B8#1081818181818181
(1595875029.264745) can0 568#0000FFFF7123A2A2
(1595875029.265038) can0 548#000001000000A2A2
(1595875029.265325) can0 578#0906B7C000A2A2A2
(1595875029.265610) can0 58F#8002A2A2A2A2A2A2
(1595875029.364739) can0 568#0000FFFF7123A2A2
(1595875029.365026) can0 548#000001000000A2A2
(1595875029.365311) can0 578#0906B7C000A2A2A2
(1595875029.365641) can0 58F#8002A2A2A2A2A2A2
(1595875029.365976) can0 558#C1FF3B00CF07A2A2
(1595875029.366261) can0 588#03FF32000000A2A2
(1595875029.402365) can0 57F#00A2A2A2A2A2A2A2
(1595875029.464729) can0 568#0000FFFF7123A2A2
(1595875029.464932) can0 548#000001000000A2A2
(1595875029.465292) can0 578#0906B7C000A2A2A2
(1595875029.465579) can0 58F#8002A2A2A2A2A2A2
(1595875029.564817) can0 568#0000FFFF7123A2A2
(1595875029.565021) can0 548#000001000000A2A2
(1595875029.565388) can0 578#0906B7C000A2A2A2
(1595875029.565673) can0 58F#8002A2A2A2A2A2A2
(1595875029.664660) can0 568#0000FFFF7123A2A2
(1595875029.664951) can0 548#000001000000A2A2
(1595875029.665239) can0 578#0906B7C000A2A2A2
(1595875029.665556) can0 58F#8002A2A2A2A2A2A2
(1595875029.678654) can0 5B8#1081818181818181
(1595875029.764670) can0 568#0000FFFF7123A2A2
(1595875029.764963) can0 548#000001000000A2A2
(1595875029.765279) can0 578#0906B7C000A2A2A2
(1595875029.765565) can0 58F#8002A2A2A2A2A2A2
(1595875029.864738) can0 568#0000FFFF7123A2A2
(1595875029.865028) can0 548#000001000000A2A2
(1595875029.865344) can0 578#0906B7C000A2A2A2
(1595875029.865631) can0 58F#8002A2A2A2A2A2A2
(1595875029.865954) can0 558#C1FF3B00CF07A2A2
(1595875029.866243) can0 588#03FF32000000A2A2
(1595875029.902239) can0 57F#00A2A2A2A2A2A2A2
(1595875029.964601) can0 568#0000FFFF7123A2A2
(1595875029.964897) can0 548#000001000000A2A2
(1595875029.965183) can0 578#0906B7C000A2A2A2
(1595875029.965511) can0 58F#8002A2A2A2A2A2A2
(1595875030.064600) can0 568#0000FFFF7123A2A2
(1595875030.064805) can0 548#000001000000A2A2
(1595875030.065182) can0 578#0906B7C000A2A2A2
(1595875030.065468) can0 58F#8002A2A2A2A2A2A2
(1595875030.164697) can0 568#0000FFFF7123A2A2
(1595875030.164902) can0 548#000001000000A2A2
(1595875030.165278) can0 578#0906B7C000A2A2A2
(1595875030.165596) can0 58F#8002A2A2A2A2A2A2
(1595875030.178722) can0 5B8#1081818181818181
(1595875030.264571) can0 568#0000FFFF7123A2A2
(1595875030.264884) can0 548#000001000000A2A2
(1595875030.265168) can0 578#0906B7C000A2A2A2
(1595875030.265453) can0 58F#8002A2A2A2A2A2A2
(1595875030.364528) can0 568#0000FFFF7123A2A2
(1595875030.364823) can0 548#000001000000A2A2
(1595875030.365122) can0 578#0906B7C000A2A2A2
(1595875030.365480) can0 58F#8002A2A2A2A2A2A2
(1595875030.365811) can0 558#C1FF3B00CF07A2A2
(1595875030.366141) can0 588#03FF32000000A2A2
(1595875030.402156) can0 57F#00A2A2A2A2A2A2A2
(1595875030.464552) can0 568#0000FFFF7123A2A2
(1595875030.464847) can0 548#000001000000A2A2
(1595875030.465158) can0 578#0906B7C000A2A2A2
(1595875030.465484) can0 58F#8002A2A2A2A2A2A2
(1595875030.564499) can0 568#0000FFFF7123A2A2
(1595875030.564794) can0 548#000001000000A2A2
(1595875030.565084) can0 578#0906B7C000A2A2A2
(1595875030.565388) can0 58F#8002A2A2A2A2A2A2
(1595875030.664498) can0 568#0000FFFF7123A2A2
(1595875030.664792) can0 548#000001000000A2A2
(1595875030.665100) can0 578#0906B7C000A2A2A2
(1595875030.665388) can0 58F#8002A2A2A2A2A2A2
(1595875030.678763) can0 5B8#1081818181818181
(1595875030.764509) can0 568#0000FFFF7123A2A2
(1595875030.764800) can0 548#000001000000A2A2
(1595875030.765109) can0 578#0906B7C000A2A2A2
(1595875030.765397) can0 58F#8002A2A2A2A2A2A2
(1595875030.864442) can0 568#0000FFFF7123A2A2
(1595875030.864733) can0 548#000001000000A2A2
(1595875030.865070) can0 578#0906B7C000A2A2A2
(1595875030.865363) can0 58F#8002A2A2A2A2A2A2
(1595875030.865650) can0 558#C1FF3B00CF07A2A2
(1595875030.865996) can0 588#03FF32000000A2A2
(1595875030.902075) can0 57F#00A2A2A2A2A2A2A2
(1595875030.964416) can0 568#0000FFFF7123A2A2
(1595875030.964630) can0 548#000001000000A2A2
(1595875030.964991) can0 578#0906B7C000A2A2A2
(1595875030.965346) can0 58F#8002A2A2A2A2A2A2
(1595875031.064406) can0 568#0000FFFF7123A2A2
(1595875031.064611) can0 548#000001000000A2A2
(1595875031.064987) can0 578#0906B7C000A2A2A2
(1595875031.065274) can0 58F#8002A2A2A2A2A2A2
(1595875031.164409) can0 568#0000FFFF7123A2A2
(1595875031.164697) can0 548#000001000000A2A2
(1595875031.165004) can0 578#0906B7C000A2A2A2
(1595875031.165284) can0 58F#8002A2A2A2A2A2A2
(1595875031.178838) can0 5B8#1081818181818181
(1595875031.264380) can0 568#0000FFFF7123A2A2
(1595875031.264584) can0 548#000001000000A2A2
(1595875031.264926) can0 578#0906B7C000A2A2A2
(1595875031.265261) can0 58F#8002A2A2A2A2A2A2
(1595875031.364382) can0 568#0000FFFF7123A2A2
(1595875031.364670) can0 548#000001000000A2A2
(1595875031.364994) can0 578#0906B7C000A2A2A2
(1595875031.365293) can0 58F#8002A2A2A2A2A2A2
(1595875031.365584) can0 558#C1FF3B00CF07A2A2
(1595875031.365909) can0 588#03FF32000000A2A2
(1595875031.401983) can0 57F#00A2A2A2A2A2A2A2
(1595875031.464309) can0 568#0000FFFF7123A2A2
(1595875031.464611) can0 548#000001000000A2A2
(1595875031.464812) can0 578#0906B7C000A2A2A2
(1595875031.465178) can0 58F#8002A2A2A2A2A2A2
(1595875031.564304) can0 568#0000FFFF7123A2A2
(1595875031.564613) can0 548#000001000000A2A2
(1595875031.564904) can0 578#0906B7C000A2A2A2
(1595875031.565224) can0 58F#8002A2A2A2A2A2A2
(1595875031.664324) can0 568#0000FFFF7123A2A2
(1595875031.664553) can0 548#000001000000A2A2
(1595875031.664912) can0 578#0906B7C000A2A2A2
(1595875031.665125) can0 58F#8002A2A2A2A2A2A2
(1595875031.678879) can0 5B8#1081818181818181
(1595875031.764254) can0 568#0000FFFF7123A2A2
(1595875031.764554) can0 548#000001000000A2A2
(1595875031.764765) can0 578#0906B7C000A2A2A2
(1595875031.765149) can0 58F#8002A2A2A2A2A2A2
(1595875031.864238) can0 568#0000FFFF7123A2A2
(1595875031.864538) can0 548#000001000000A2A2
(1595875031.864834) can0 578#0906B7C000A2A2A2
(1595875031.865186) can0 58F#8002A2A2A2A2A2A2
(1595875031.865396) can0 558#C1FF3B00CF07A2A2
(1595875031.865776) can0 588#03FF32000000A2A2
(1595875031.901891) can0 57F#00A2A2A2A2A2A2A2
(1595875031.964218) can0 568#0000FFFF7123A2A2
(1595875031.964517) can0 548#000001000000A2A2
(1595875031.964811) can0 578#0906B7C000A2A2A2
(1595875031.965125) can0 58F#8002A2A2A2A2A2A2
(1595875032.064201) can0 568#0000FFFF7123A2A2
(1595875032.064511) can0 548#000001000000A2A2
(1595875032.064725) can0 578#0906B7C000A2A2A2
(1595875032.065060) can0 58F#8002A2A2A2A2A2A2
(1595875032.164190) can0 568#0000FFFF7123A2A2
(1595875032.164491) can0 548#000001000000A2A2
(1595875032.164701) can0 578#0906B7C000A2A2A2
(1595875032.165102) can0 58F#8002A2A2A2A2A2A2
(1595875032.178880) can0 5B8#1081818181818181
(1595875032.264166) can0 568#0000FFFF7123A2A2
(1595875032.264383) can0 548#000001000000A2A2
(1595875032.264737) can0 578#0906B7C000A2A2A2
(1595875032.265059) can0 58F#8002A2A2A2A2A2A2
(1595875032.364149) can0 568#0000FFFF7123A2A2
(1595875032.364453) can0 548#000001000000A2A2
(1595875032.364772) can0 578#0906B7C000A2A2A2
(1595875032.365085) can0 58F#8002A2A2A2A2A2A2
(1595875032.365306) can0 558#C1FF3B00CF07A2A2
(1595875032.365681) can0 588#03FF32000000A2A2
(1595875032.401801) can0 57F#00A2A2A2A2A2A2A2
(1595875032.464132) can0 568#0000FFFF7123A2A2
(1595875032.464353) can0 548#000001000000A2A2
(1595875032.464781) can0 578#0906B7C000A2A2A2
(1595875032.465101) can0 58F#8002A2A2A2A2A2A2
(1595875032.564112) can0 568#0000FFFF7123A2A2
(1595875032.564329) can0 548#000001000000A2A2
(1595875032.564681) can0 578#0906B7C000A2A2A2
(1595875032.564982) can0 58F#8002A2A2A2A2A2A2
(1595875032.664075) can0 568#0000FFFF7123A2A2
(1595875032.664376) can0 548#000001000000A2A2
(1595875032.664586) can0 578#0906B7C000A2A2A2
(1595875032.664952) can0 58F#8002A2A2A2A2A2A2
(1595875032.678901) can0 5B8#1081818181818181
(1595875032.764078) can0 568#0000FFFF7123A2A2
(1595875032.764380) can0 548#000001000000A2A2
(1595875032.764771) can0 578#0906B7C000A2A2A2
(1595875032.765070) can0 58F#8002A2A2A2A2A2A2
(1595875032.864036) can0 568#0000FFFF7123A2A2
(1595875032.864337) can0 548#000001000000A2A2
(1595875032.864633) can0 578#0906B7C000A2A2A2
(1595875032.864932) can0 58F#8002A2A2A2A2A2A2
(1595875032.865286) can0 558#C1FF3B00CF07A2A2
(1595875032.865590) can0 588#03FF32000000A2A2
(1595875032.901666) can0 57F#00A2A2A2A2A2A2A2
(1595875032.964032) can0 568#0000FFFF7123A2A2
(1595875032.964332) can0 548#000001000000A2A2
(1595875032.964543) can0 578#0906B7C000A2A2A2
(1595875032.964913) can0 58F#8002A2A2A2A2A2A2
(1595875033.063999) can0 568#0000FFFF7123A2A2
(1595875033.064300) can0 548#000001000000A2A2
(1595875033.064615) can0 578#0906B7C000A2A2A2
(1595875033.064914) can0 58F#8002A2A2A2A2A2A2
(1595875033.164004) can0 568#0000FFFF7123A2A2
(1595875033.164302) can0 548#000001000000A2A2
(1595875033.164617) can0 578#0906B7C000A2A2A2
(1595875033.164917) can0 58F#8002A2A2A2A2A2A2
(1595875033.178971) can0 5B8#1081818181818181
(1595875033.263965) can0 568#0000FFFF7123A2A2
(1595875033.264269) can0 548#000001000000A2A2
(1595875033.264569) can0 578#0906B7C000A2A2A2
(1595875033.264867) can0 58F#8002A2A2A2A2A2A2
(1595875033.363976) can0 568#0000FFFF7123A2A2
(1595875033.364279) can0 548#000001000000A2A2
(1595875033.364577) can0 578#0906B7C000A2A2A2
(1595875033.364785) can0 58F#8002A2A2A2A2A2A2
(1595875033.365180) can0 558#C1FF3B00CF07A2A2
(1595875033.365480) can0 588#03FF32000000A2A2
(1595875033.401566) can0 57F#00A2A2A2A2A2A2A2
(1595875033.463941) can0 568#0000FFFF7123A2A2
(1595875033.464241) can0 548#000001000000A2A2
(1595875033.464540) can0 578#0906B7C000A2A2A2
(1595875033.464839) can0 58F#8002A2A2A2A2A2A2
(1595875033.563942) can0 568#0000FFFF7123A2A2
(1595875033.564176) can0 548#000001000000A2A2
(1595875033.564529) can0 578#0906B7C000A2A2A2
(1595875033.564835) can0 58F#8002A2A2A2A2A2A2
(1595875033.663899) can0 568#0000FFFF7123A2A2
(1595875033.664245) can0 548#000001000000A2A2
(1595875033.664541) can0 578#0906B7C000A2A2A2
(1595875033.664753) can0 58F#8002A2A2A2A2A2A2
(1595875033.678976) can0 5B8#1081818181818181
(1595875033.763867) can0 568#0000FFFF7123A2A2
(1595875033.764167) can0 548#000001000000A2A2
(1595875033.764462) can0 578#0906B7C000A2A2A2
(1595875033.764759) can0 58F#8002A2A2A2A2A2A2
(1595875033.863863) can0 568#0000FFFF7123A2A2
(1595875033.864174) can0 548#000001000000A2A2
(1595875033.864387) can0 578#0906B7C000A2A2A2
(1595875033.864731) can0 58F#8002A2A2A2A2A2A2
(1595875033.865089) can0 558#C1FF3B00CF07A2A2
(1595875033.865392) can0 588#03FF32000000A2A2
(1595875033.901602) can0 57F#00A2A2A2A2A2A2A2
(1595875033.963839) can0 568#0000FFFF7123A2A2
(1595875033.964210) can0 548#000001000000A2A2
(1595875033.964511) can0 578#0906B7C000A2A2A2
(1595875033.964806) can0 58F#8002A2A2A2A2A2A2
(1595875034.063814) can0 568#0000FFFF7123A2A2
(1595875034.064126) can0 548#000001000000A2A2
(1595875034.064339) can0 578#0906B7C000A2A2A2
(1595875034.064708) can0 58F#8002A2A2A2A2A2A2
(1595875034.163803) can0 568#0000FFFF7123A2A2
(1595875034.164105) can0 548#000001000000A2A2
(1595875034.164317) can0 578#0906B7C000A2A2A2
(1595875034.164684) can0 58F#8002A2A2A2A2A2A2
(1595875034.179013) can0 5B8#1081818181818181
(1595875034.263782) can0 568#0000FFFF7123A2A2
(1595875034.264156) can0 548#000001000000A2A2
(1595875034.264482) can0 578#0906B7C000A2A2A2
(1595875034.264779) can0 58F#8002A2A2A2A2A2A2
(1595875034.363765) can0 568#0000FFFF7123A2A2
(1595875034.364065) can0 548#000001000000A2A2
(1595875034.364391) can0 578#0906B7C000A2A2A2
(1595875034.364692) can0 58F#8002A2A2A2A2A2A2
(1595875034.365044) can0 558#C1FF3B00CF07A2A2
(1595875034.365255) can0 588#03FF32000000A2A2
(1595875034.401405) can0 57F#00A2A2A2A2A2A2A2
(1595875034.463736) can0 568#0000FFFF7123A2A2
(1595875034.463954) can0 548#000001000000A2A2
(1595875034.464329) can0 578#0906B7C000A2A2A2
(1595875034.464550) can0 58F#8002A2A2A2A2A2A2
(1595875034.563723) can0 568#0000FFFF7123A2A2
(1595875034.564083) can0 548#000001000000A2A2
(1595875034.564382) can0 578#0906B7C000A2A2A2
(1595875034.564592) can0 58F#8002A2A2A2A2A2A2
(1595875034.663710) can0 568#0000FFFF7123A2A2
(1595875034.664017) can0 548#000001000000A2A2
(1595875034.664226) can0 578#0906B7C000A2A2A2
(1595875034.664602) can0 58F#8002A2A2A2A2A2A2
(1595875034.679048) can0 5B8#1081818181818181
(1595875034.763706) can0 568#0000FFFF7123A2A2
(1595875034.764007) can0 548#000001000000A2A2
(1595875034.764304) can0 578#0906B7C000A2A2A2
(1595875034.764512) can0 58F#8002A2A2A2A2A2A2
(1595875034.863666) can0 568#0000FFFF7123A2A2
(1595875034.864044) can0 548#000001000000A2A2
(1595875034.864348) can0 578#0906B7C000A2A2A2
(1595875034.864647) can0 58F#8002A2A2A2A2A2A2
(1595875034.864944) can0 558#C1FF3B00CF07A2A2
(1595875034.865242) can0 588#03FF32000000A2A2
(1595875034.901273) can0 57F#00A2A2A2A2A2A2A2
(1595875034.963636) can0 568#0000FFFF7123A2A2
(1595875034.963937) can0 548#000001000000A2A2
(1595875034.964235) can0 578#0906B7C000A2A2A2
(1595875034.964532) can0 58F#8002A2A2A2A2A2A2
(1595875035.063636) can0 568#0000FFFF7123A2A2
(1595875035.063937) can0 548#000001000000A2A2
(1595875035.064234) can0 578#0906B7C000A2A2A2
(1595875035.064444) can0 58F#8002A2A2A2A2A2A2
(1595875035.163622) can0 568#0000FFFF7123A2A2
(1595875035.163924) can0 548#000001000000A2A2
(1595875035.164223) can0 578#0906B7C000A2A2A2
(1595875035.164560) can0 58F#8002A2A2A2A2A2A2
(1595875035.179110) can0 5B8#1081818181818181
(1595875035.263585) can0 568#0000FFFF7123A2A2
(1595875035.263801) can0 548#000001000000A2A2
(1595875035.264188) can0 578#0906B7C000A2A2A2
(1595875035.264488) can0 58F#8002A2A2A2A2A2A2
(1595875035.363568) can0 568#0000FFFF7123A2A2
(1595875035.363878) can0 548#000001000000A2A2
(1595875035.364182) can0 578#0906B7C000A2A2A2
(1595875035.364392) can0 58F#8002A2A2A2A2A2A2
(1595875035.364894) can0 558#C1FF3B00CF07A2A2
(1595875035.365204) can0 588#03FF32000000A2A2
(1595875035.401300) can0 57F#00A2A2A2A2A2A2A2
(1595875035.463657) can0 568#0000FFFF7123A2A2
(1595875035.463958) can0 548#000001000000A2A2
(1595875035.464170) can0 578#0906B7C000A2A2A2
(1595875035.464547) can0 58F#8002A2A2A2A2A2A2
(1595875035.563553) can0 568#0000FFFF7123A2A2
(1595875035.563855) can0 548#000001000000A2A2
(1595875035.564157) can0 578#0906B7C000A2A2A2
(1595875035.564454) can0 58F#8002A2A2A2A2A2A2
(1595875035.663519) can0 568#0000FFFF7123A2A2
(1595875035.663820) can0 548#000001000000A2A2
(1595875035.664120) can0 578#0906B7C000A2A2A2
(1595875035.664417) can0 58F#8002A2A2A2A2A2A2
(1595875035.679126) can0 5B8#1081818181818181
(1595875035.763608) can0 568#0000FFFF7123A2A2
(1595875035.763909) can0 548#000001000000A2A2
(1595875035.764123) can0 578#0906B7C000A2A2A2
(1595875035.764478) can0 58F#8002A2A2A2A2A2A2
(1595875035.848498) can0 58F#890000A2A2A2A2A2
(1595875035.863491) can0 568#0000FFFF7123A2A2
(1595875035.863710) can0 548#000001000000A2A2
(1595875035.864106) can0 578#0906B7C000A2A2A2
(1595875035.864405) can0 58F#8002A2A2A2A2A2A2
(1595875035.864703) can0 558#C1FF3B00CF07A2A2
(1595875035.865002) can0 588#03FF32000000A2A2
(1595875035.884536) can0 121#103F400111580000
(1595875035.884948) can0 521#300100A2A2A2A2A2
(1595875035.885650) can0 121#2100000000000000
(1595875035.886221) can0 521#300100A2A2A2A2A2
(1595875035.887521) can0 121#2200000000040000
(1595875035.887948) can0 521#300100A2A2A2A2A2
(1595875035.888640) can0 121#2300000000002000
(1595875035.889078) can0 521#300100A2A2A2A2A2
(1595875035.889770) can0 121#2420002000200020
(1595875035.890340) can0 521#300100A2A2A2A2A2
(1595875035.890522) can0 121#2500200020002000
(1595875035.891335) can0 521#300100A2A2A2A2A2
(1595875035.891518) can0 121#2620002000200020
(1595875035.891958) can0 521#300100A2A2A2A2A2
(1595875035.892655) can0 121#2700200020002000
(1595875035.893077) can0 521#300100A2A2A2A2A2
(1595875035.893768) can0 121#2820002000200020
(1595875035.894334) can0 521#300100A2A2A2A2A2
(1595875035.894517) can0 121#290C818181818181
(1595875035.894904) can0 521#74A2A2A2A2A2A2A2
(1595875035.897710) can0 1C1#03600200A2A2A2A2
(1595875035.898080) can0 5C1#7481818181818181
(1595875035.901110) can0 57F#00A2A2A2A2A2A2A2
(1595875035.963457) can0 568#0000FFFF7123A2A2
(1595875035.963675) can0 548#000001000000A2A2
(1595875035.964046) can0 578#0906B7C000A2A2A2
(1595875035.964347) can0 58F#8002A2A2A2A2A2A2
(1595875035.984513) can0 121#103F400111580000
(1595875035.984938) can0 521#300100A2A2A2A2A2
(1595875035.985635) can0 121#2100000000000000
(1595875035.986342) can0 521#300100A2A2A2A2A2
(1595875035.986527) can0 121#2200000000040000
(1595875035.986936) can0 521#300100A2A2A2A2A2
(1595875035.987640) can0 121#2300000000002000
(1595875035.988060) can0 521#300100A2A2A2A2A2
(1595875035.988799) can0 121#2420002000200020
(1595875035.989339) can0 521#300100A2A2A2A2A2
(1595875035.989522) can0 121#2500200020002000
(1595875035.989932) can0 521#300100A2A2A2A2A2
(1595875035.990616) can0 121#2620002000200020
(1595875035.991336) can0 521#300100A2A2A2A2A2
(1595875035.991518) can0 121#2700200020002000
(1595875035.991932) can0 521#300100A2A2A2A2A2
(1595875035.992620) can0 121#2820002000200052
(1595875035.993056) can0 521#300100A2A2A2A2A2
(1595875035.993734) can0 121#290C818181818181
(1595875035.994138) can0 521#74A2A2A2A2A2A2A2
(1595875035.996862) can0 1C1#03600200A2A2A2A2
(1595875035.997232) can0 5C1#7481818181818181
(1595875036.063557) can0 568#0000FFFF7123A2A2
(1595875036.063780) can0 548#000001000000A2A2
(1595875036.064159) can0 578#0906B7C000A2A2A2
(1595875036.064462) can0 58F#8002A2A2A2A2A2A2
(1595875036.084511) can0 121#103F400111580000
(1595875036.084926) can0 521#300100A2A2A2A2A2
(1595875036.085641) can0 121#2100000000000000
(1595875036.086138) can0 521#300100A2A2A2A2A2
(1595875036.086830) can0 121#2200000000040000
(1595875036.087336) can0 521#300100A2A2A2A2A2
(1595875036.087519) can0 121#2300000000002000
(1595875036.087938) can0 521#300100A2A2A2A2A2
(1595875036.088629) can0 121#2420002000200020
(1595875036.089051) can0 521#300100A2A2A2A2A2
(1595875036.089738) can0 121#2500200020002000
(1595875036.090338) can0 521#300100A2A2A2A2A2
(1595875036.090521) can0 121#2620002000200020
(1595875036.091329) can0 521#300100A2A2A2A2A2
(1595875036.091513) can0 121#2700200020002000
(1595875036.091920) can0 521#300100A2A2A2A2A2
(1595875036.092607) can0 121#2820002000520045
(1595875036.093134) can0 521#300100A2A2A2A2A2
(1595875036.093815) can0 121#290C818181818181
(1595875036.094228) can0 521#74A2A2A2A2A2A2A2
(1595875036.097202) can0 1C1#03600200A2A2A2A2
(1595875036.097616) can0 5C1#7481818181818181
(1595875036.163410) can0 568#0000FFFF7123A2A2
(1595875036.163625) can0 548#000001000000A2A2
(1595875036.163999) can0 578#0906B7C000A2A2A2
(1595875036.164210) can0 58F#8002A2A2A2A2A2A2
(1595875036.179159) can0 5B8#1081818181818181
(1595875036.184518) can0 121#103F400111580000
(1595875036.184956) can0 521#300100A2A2A2A2A2
(1595875036.185650) can0 121#2100000000000000
(1595875036.186130) can0 521#300100A2A2A2A2A2
(1595875036.186824) can0 121#2200000000040000
(1595875036.187341) can0 521#300100A2A2A2A2A2
(1595875036.187523) can0 121#2300000000002000
(1595875036.187962) can0 521#300100A2A2A2A2A2
(1595875036.188653) can0 121#2420002000200020
(1595875036.189082) can0 521#300100A2A2A2A2A2
(1595875036.189768) can0 121#2500200020002000
(1595875036.190333) can0 521#300100A2A2A2A2A2
(1595875036.190516) can0 121#2620002000200020
(1595875036.191339) can0 521#300100A2A2A2A2A2
(1595875036.191521) can0 121#2700200020002000
(1595875036.192335) can0 521#300100A2A2A2A2A2
(1595875036.192517) can0 121#2820005200450042
(1595875036.192925) can0 521#300100A2A2A2A2A2
(1595875036.193601) can0 121#290C818181818181
(1595875036.194002) can0 521#74A2A2A2A2A2A2A2
(1595875036.196811) can0 1C1#03600200A2A2A2A2
(1595875036.197182) can0 5C1#7481818181818181
(1595875036.263423) can0 568#0000FFFF7123A2A2
(1595875036.263640) can0 548#000001000000A2A2
(1595875036.264026) can0 578#0906B7C000A2A2A2
(1595875036.264420) can0 58F#8002A2A2A2A2A2A2
(1595875036.284533) can0 121#103F400111580000
(1595875036.284958) can0 521#300100A2A2A2A2A2
(1595875036.286524) can0 121#2100000000000000
(1595875036.287107) can0 521#300100A2A2A2A2A2
(1595875036.287868) can0 121#2200000000040000
(1595875036.288434) can0 521#300100A2A2A2A2A2
(1595875036.288625) can0 121#2300000000002000
(1595875036.289074) can0 521#300100A2A2A2A2A2
(1595875036.289766) can0 121#2420002000200020
(1595875036.290340) can0 521#300100A2A2A2A2A2
(1595875036.290534) can0 121#2500200020002000
(1595875036.291345) can0 521#300100A2A2A2A2A2
(1595875036.291536) can0 121#2620002000200020
(1595875036.292095) can0 521#300100A2A2A2A2A2
(1595875036.292785) can0 121#2700200020002000
(1595875036.293345) can0 521#300100A2A2A2A2A2
(1595875036.293552) can0 121#2852004500420045
(1595875036.294119) can0 521#300100A2A2A2A2A2
(1595875036.294793) can0 121#290C818181818181
(1595875036.295194) can0 521#74A2A2A2A2A2A2A2
(1595875036.298021) can0 1C1#03600200A2A2A2A2
(1595875036.298375) can0 5C1#7481818181818181
(1595875036.363457) can0 568#0000FFFF7123A2A2
(1595875036.363768) can0 548#000001000000A2A2
(1595875036.364079) can0 578#0906B7C000A2A2A2
(1595875036.364380) can0 58F#8002A2A2A2A2A2A2
(1595875036.364681) can0 558#C1FF3B00CF07A2A2
(1595875036.364996) can0 588#03FF32000000A2A2
(1595875036.384518) can0 121#103F400111580000
(1595875036.384944) can0 521#300100A2A2A2A2A2
(1595875036.385745) can0 121#2100000000000000
(1595875036.386400) can0 521#300100A2A2A2A2A2
(1595875036.386587) can0 121#2200000000040000
(1595875036.387357) can0 521#300100A2A2A2A2A2
(1595875036.387557) can0 121#2300000000002000
(1595875036.387975) can0 521#300100A2A2A2A2A2
(1595875036.388797) can0 121#2420002000200020
(1595875036.389345) can0 521#300100A2A2A2A2A2
(1595875036.389531) can0 121#2500200020002000
(1595875036.389937) can0 521#300100A2A2A2A2A2
(1595875036.390630) can0 121#2620002000200020
(1595875036.391087) can0 521#300100A2A2A2A2A2
(1595875036.391782) can0 121#2700200020005200
(1595875036.392407) can0 521#300100A2A2A2A2A2
(1595875036.392593) can0 121#284500420045004C
(1595875036.393077) can0 521#300100A2A2A2A2A2
(1595875036.393755) can0 121#290C818181818181
(1595875036.394155) can0 521#74A2A2A2A2A2A2A2
(1595875036.397163) can0 1C1#03600200A2A2A2A2
(1595875036.397509) can0 5C1#7481818181818181
(1595875036.401004) can0 57F#00A2A2A2A2A2A2A2
(1595875036.463407) can0 568#0000FFFF7123A2A2
(1595875036.463658) can0 548#000001000000A2A2
(1595875036.464012) can0 578#0906B7C000A2A2A2
(1595875036.464324) can0 58F#8002A2A2A2A2A2A2
(1595875036.484519) can0 121#103F400111580000
(1595875036.484929) can0 521#300100A2A2A2A2A2
(1595875036.485705) can0 121#2100000000000000
(1595875036.486111) can0 521#300100A2A2A2A2A2
(1595875036.486831) can0 121#2200000000040000
(1595875036.487235) can0 521#300100A2A2A2A2A2
(1595875036.487963) can0 121#2300000000002000
(1595875036.488560) can0 521#300100A2A2A2A2A2
(1595875036.488785) can0 121#2420002000200020
(1595875036.489192) can0 521#300100A2A2A2A2A2
(1595875036.489848) can0 121#2500200020002000
(1595875036.490336) can0 521#300100A2A2A2A2A2
(1595875036.490521) can0 121#2620002000200020
(1595875036.491071) can0 521#300100A2A2A2A2A2
(1595875036.491750) can0 121#2700200052004500
(1595875036.492362) can0 521#300100A2A2A2A2A2
(1595875036.492546) can0 121#28420045004C0053
(1595875036.492960) can0 521#300100A2A2A2A2A2
(1595875036.493636) can0 121#290C818181818181
(1595875036.494065) can0 521#74A2A2A2A2A2A2A2
(1595875036.497070) can0 1C1#03600200A2A2A2A2
(1595875036.497377) can0 5C1#7481818181818181
(1595875036.563355) can0 568#0000FFFF7123A2A2
(1595875036.563587) can0 548#000001000000A2A2
(1595875036.563945) can0 578#0906B7C000A2A2A2
(1595875036.564325) can0 58F#8002A2A2A2A2A2A2
(1595875036.584590) can0 121#103F400111580000
(1595875036.585019) can0 521#300100A2A2A2A2A2
(1595875036.585737) can0 121#2100000000000000
(1595875036.586143) can0 521#300100A2A2A2A2A2
(1595875036.586825) can0 121#2200000000040000
(1595875036.587322) can0 521#300100A2A2A2A2A2
(1595875036.587513) can0 121#2300000000002000
(1595875036.587940) can0 521#300100A2A2A2A2A2
(1595875036.588716) can0 121#2420002000200020
(1595875036.589089) can0 521#300100A2A2A2A2A2
(1595875036.589825) can0 121#2500200020002000
(1595875036.590330) can0 521#300100A2A2A2A2A2
(1595875036.590519) can0 121#2620002000200020
(1595875036.591084) can0 521#300100A2A2A2A2A2
(1595875036.591758) can0 121#2700520045004200
(1595875036.592425) can0 521#300100A2A2A2A2A2
(1595875036.592613) can0 121#2845004C00530020
(1595875036.593011) can0 521#300100A2A2A2A2A2
(1595875036.593692) can0 121#290C818181818181
(1595875036.594133) can0 521#74A2A2A2A2A2A2A2
(1595875036.596839) can0 1C1#03600200A2A2A2A2
(1595875036.597209) can0 5C1#7481818181818181
(1595875036.663373) can0 568#0000FFFF7123A2A2
(1595875036.663594) can0 548#000001000000A2A2
(1595875036.663976) can0 578#0906B7C000A2A2A2
(1595875036.664273) can0 58F#8002A2A2A2A2A2A2
(1595875036.679194) can0 5B8#1081818181818181
(1595875036.684526) can0 121#103F400111580000
(1595875036.684930) can0 521#300100A2A2A2A2A2
(1595875036.685637) can0 121#2100000000000000
(1595875036.686087) can0 521#300100A2A2A2A2A2
(1595875036.686785) can0 121#2200000000040000
(1595875036.687338) can0 521#300100A2A2A2A2A2
(1595875036.687523) can0 121#2300000000002000
(1595875036.687938) can0 521#300100A2A2A2A2A2
(1595875036.688624) can0 121#2420002000200020
(1595875036.689028) can0 521#300100A2A2A2A2A2
(1595875036.689762) can0 121#2500200020002000
(1595875036.690337) can0 521#300100A2A2A2A2A2
(1595875036.690523) can0 121#2620002000200052
(1595875036.691036) can0 521#300100A2A2A2A2A2
(1595875036.691716) can0 121#2700450042004500
(1595875036.692341) can0 521#300100A2A2A2A2A2
(1595875036.692528) can0 121#284C00530020002D
(1595875036.693032) can0 521#300100A2A2A2A2A2
(1595875036.693707) can0 121#290C818181818181
(1595875036.694138) can0 521#74A2A2A2A2A2A2A2
(1595875036.697074) can0 1C1#03600200A2A2A2A2
(1595875036.697448) can0 5C1#7481818181818181
(1595875036.763303) can0 568#0000FFFF7123A2A2
(1595875036.763520) can0 548#000001000000A2A2
(1595875036.763878) can0 578#0906B7C000A2A2A2
(1595875036.764174) can0 58F#8002A2A2A2A2A2A2
(1595875036.784528) can0 121#103F400111580000
(1595875036.784946) can0 521#300100A2A2A2A2A2
(1595875036.785635) can0 121#2100000000000000
(1595875036.786047) can0 521#300100A2A2A2A2A2
(1595875036.786743) can0 121#2200000000040000
(1595875036.787345) can0 521#300100A2A2A2A2A2
(1595875036.787529) can0 121#2300000000002000
(1595875036.787934) can0 521#300100A2A2A2A2A2
(1595875036.788619) can0 121#2420002000200020
(1595875036.789037) can0 521#300100A2A2A2A2A2
(1595875036.789725) can0 121#2500200020002000
(1595875036.790130) can0 521#300100A2A2A2A2A2
(1595875036.790814) can0 121#2620002000520045
(1595875036.791336) can0 521#300100A2A2A2A2A2
(1595875036.791517) can0 121#2700420045004C00
(1595875036.792086) can0 521#300100A2A2A2A2A2
(1595875036.792774) can0 121#28530020002D0020
(1595875036.793413) can0 521#300100A2A2A2A2A2
(1595875036.793590) can0 121#290C818181818181
(1595875036.794032) can0 521#74A2A2A2A2A2A2A2
(1595875036.796977) can0 1C1#03600200A2A2A2A2
(1595875036.797343) can0 5C1#7481818181818181
(1595875036.863323) can0 568#0000FFFF7123A2A2
(1595875036.863708) can0 548#000001000000A2A2
(1595875036.863919) can0 578#0906B7C000A2A2A2
(1595875036.864277) can0 58F#8002A2A2A2A2A2A2
(1595875036.864573) can0 558#C1FF3B00CF07A2A2
(1595875036.864867) can0 588#03FF32000000A2A2
(1595875036.884527) can0 121#103F400111580000
(1595875036.884929) can0 521#300100A2A2A2A2A2
(1595875036.885642) can0 121#2100000000000000
(1595875036.886092) can0 521#300100A2A2A2A2A2
(1595875036.886786) can0 121#2200000000040000
(1595875036.887344) can0 521#300100A2A2A2A2A2
(1595875036.887527) can0 121#2300000000002000
(1595875036.887942) can0 521#300100A2A2A2A2A2
(1595875036.888634) can0 121#2420002000200020
(1595875036.889060) can0 521#300100A2A2A2A2A2
(1595875036.889752) can0 121#2500200020002000
(1595875036.890333) can0 521#300100A2A2A2A2A2
(1595875036.890511) can0 121#2620005200450042
(1595875036.891056) can0 521#300100A2A2A2A2A2
(1595875036.891737) can0 121#270045004C005300
(1595875036.892336) can0 521#300100A2A2A2A2A2
(1595875036.892520) can0 121#2820002D00200057
(1595875036.892969) can0 521#300100A2A2A2A2A2
(1595875036.893662) can0 121#290C818181818181
(1595875036.894108) can0 521#74A2A2A2A2A2A2A2
(1595875036.896791) can0 1C1#03600200A2A2A2A2
(1595875036.897159) can0 5C1#7481818181818181
(1595875036.900932) can0 57F#00A2A2A2A2A2A2A2
(1595875036.963338) can0 568#0000FFFF7123A2A2
(1595875036.963556) can0 548#000001000000A2A2
(1595875036.963940) can0 578#0906B7C000A2A2A2
(1595875036.964147) can0 58F#8002A2A2A2A2A2A2
(1595875036.984515) can0 121#103F400111580000
(1595875036.984924) can0 521#300100A2A2A2A2A2
(1595875036.985626) can0 121#2100000000000000
(1595875036.986354) can0 521#300100A2A2A2A2A2
(1595875036.986538) can0 121#2200000000040000
(1595875036.987094) can0 521#300100A2A2A2A2A2
(1595875036.987788) can0 121#2300000000002000
(1595875036.988362) can0 521#300100A2A2A2A2A2
(1595875036.988543) can0 121#2420002000200020
(1595875036.988983) can0 521#300100A2A2A2A2A2
(1595875036.989676) can0 121#2500200020002000
(1595875036.990084) can0 521#300100A2A2A2A2A2
(1595875036.990764) can0 121#2652004500420045
(1595875036.991350) can0 521#300100A2A2A2A2A2
(1595875036.991532) can0 121#27004C0053002000
(1595875036.992102) can0 521#300100A2A2A2A2A2
(1595875036.992789) can0 121#282D002000570020
(1595875036.993417) can0 521#300100A2A2A2A2A2
(1595875036.993595) can0 121#290C818181818181
(1595875036.994035) can0 521#74A2A2A2A2A2A2A2
(1595875036.996986) can0 1C1#03600200A2A2A2A2
(1595875036.997356) can0 5C1#7481818181818181
(1595875037.063255) can0 568#0000FFFF7123A2A2
(1595875037.063473) can0 548#000001000000A2A2
(1595875037.063847) can0 578#0906B7C000A2A2A2
(1595875037.064145) can0 58F#8002A2A2A2A2A2A2
(1595875037.084513) can0 121#103F400111580000
(1595875037.085007) can0 521#300100A2A2A2A2A2
(1595875037.085696) can0 121#2100000000000000
(1595875037.086360) can0 521#300100A2A2A2A2A2
(1595875037.086545) can0 121#2200000000040000
(1595875037.087057) can0 521#300100A2A2A2A2A2
(1595875037.087743) can0 121#2300000000002000
(1595875037.088427) can0 521#300100A2A2A2A2A2
(1595875037.088611) can0 121#2420002000200020
(1595875037.089072) can0 521#300100A2A2A2A2A2
(1595875037.089753) can0 121#2500200020005200
(1595875037.090356) can0 521#300100A2A2A2A2A2
(1595875037.090539) can0 121#264500420045004C
(1595875037.090959) can0 521#300100A2A2A2A2A2
(1595875037.091660) can0 121#2700530020002D00
(1595875037.092092) can0 521#300100A2A2A2A2A2
(1595875037.092767) can0 121#282000570020004F
(1595875037.093403) can0 521#300100A2A2A2A2A2
(1595875037.093599) can0 121#290C818181818181
(1595875037.094078) can0 521#74A2A2A2A2A2A2A2
(1595875037.096985) can0 1C1#03600200A2A2A2A2
(1595875037.097359) can0 5C1#7481818181818181
(1595875037.163220) can0 568#0000FFFF7123A2A2
(1595875037.163436) can0 548#000001000000A2A2
(1595875037.163837) can0 578#0906B7C000A2A2A2
(1595875037.164145) can0 58F#8002A2A2A2A2A2A2
(1595875037.179257) can0 5B8#1081818181818181
(1595875037.184520) can0 121#103F400111580000
(1595875037.184937) can0 521#300100A2A2A2A2A2
(1595875037.185638) can0 121#2100000000000000
(1595875037.186047) can0 521#300100A2A2A2A2A2
(1595875037.186752) can0 121#2200000000040000
(1595875037.187384) can0 521#300100A2A2A2A2A2
(1595875037.187569) can0 121#2300000000002000
(1595875037.188141) can0 521#300100A2A2A2A2A2
(1595875037.188849) can0 121#2420002000200020
(1595875037.189483) can0 521#300100A2A2A2A2A2
(1595875037.189667) can0 121#2500200052004500
(1595875037.190112) can0 521#300100A2A2A2A2A2
(1595875037.190830) can0 121#26420045004C0053
(1595875037.191457) can0 521#300100A2A2A2A2A2
(1595875037.191642) can0 121#270020002D002000
(1595875037.192079) can0 521#300100A2A2A2A2A2
(1595875037.192745) can0 121#28570020004F0020
(1595875037.193364) can0 521#300100A2A2A2A2A2
(1595875037.193553) can0 121#290C818181818181
(1595875037.193987) can0 521#74A2A2A2A2A2A2A2
(1595875037.196715) can0 1C1#03600200A2A2A2A2
(1595875037.197138) can0 5C1#7481818181818181
(1595875037.263279) can0 568#0000FFFF7123A2A2
(1595875037.263499) can0 548#000001000000A2A2
(1595875037.263871) can0 578#0906B7C000A2A2A2
(1595875037.264094) can0 58F#8002A2A2A2A2A2A2
(1595875037.284518) can0 121#103F400111580000
(1595875037.284952) can0 521#300100A2A2A2A2A2
(1595875037.285746) can0 121#2100000000000000
(1595875037.286390) can0 521#300100A2A2A2A2A2
(1595875037.286575) can0 121#2200000000040000
(1595875037.287029) can0 521#300100A2A2A2A2A2
(1595875037.287818) can0 121#2300000000002000
(1595875037.288454) can0 521#300100A2A2A2A2A2
(1595875037.288640) can0 121#2420002000200020
(1595875037.289049) can0 521#300100A2A2A2A2A2
(1595875037.289883) can0 121#2500520045004200
(1595875037.290290) can0 521#300100A2A2A2A2A2
(1595875037.290995) can0 121#2645004C00530020
(1595875037.291596) can0 521#300100A2A2A2A2A2
(1595875037.291780) can0 121#27002D0020005700
(1595875037.292200) can0 521#300100A2A2A2A2A2
(1595875037.292889) can0 121#2820004F0020004C
(1595875037.293498) can0 521#300100A2A2A2A2A2
(1595875037.293695) can0 121#290C818181818181
(1595875037.294082) can0 521#74A2A2A2A2A2A2A2
(1595875037.296943) can0 1C1#03600200A2A2A2A2
(1595875037.297295) can0 5C1#7481818181818181
(1595875037.363182) can0 568#0000FFFF7123A2A2
(1595875037.363524) can0 548#000001000000A2A2
(1595875037.363749) can0 578#0906B7C000A2A2A2
(1595875037.364073) can0 58F#8002A2A2A2A2A2A2
(1595875037.364438) can0 558#C1FF3B00CF07A2A2
(1595875037.364752) can0 588#03FF32000000A2A2
(1595875037.384513) can0 121#103F400111580000
(1595875037.385031) can0 521#300100A2A2A2A2A2
(1595875037.385832) can0 121#2100000000000000
(1595875037.386264) can0 521#300100A2A2A2A2A2
(1595875037.386971) can0 121#2200000000040000
(1595875037.387371) can0 521#300100A2A2A2A2A2
(1595875037.388111) can0 121#2300000000002000
(1595875037.388666) can0 521#300100A2A2A2A2A2
(1595875037.388887) can0 121#2420002000200052
(1595875037.389526) can0 521#300100A2A2A2A2A2
(1595875037.389711) can0 121#2500450042004500
(1595875037.390128) can0 521#300100A2A2A2A2A2
(1595875037.390809) can0 121#264C00530020002D
(1595875037.391337) can0 521#300100A2A2A2A2A2
(1595875037.391518) can0 121#2700200057002000
(1595875037.392036) can0 521#300100A2A2A2A2A2
(1595875037.392720) can0 121#284F0020004C0020
(1595875037.393332) can0 521#300100A2A2A2A2A2
(1595875037.393513) can0 121#290C818181818181
(1595875037.393937) can0 521#74A2A2A2A2A2A2A2
(1595875037.396902) can0 1C1#03600200A2A2A2A2
(1595875037.397270) can0 5C1#7481818181818181
(1595875037.400803) can0 57F#00A2A2A2A2A2A2A2
(1595875037.463165) can0 568#0000FFFF7123A2A2
(1595875037.463382) can0 548#000001000000A2A2
(1595875037.463770) can0 578#0906B7C000A2A2A2
(1595875037.464072) can0 58F#8002A2A2A2A2A2A2
(1595875037.484522) can0 121#103F400111580000
(1595875037.484937) can0 521#300100A2A2A2A2A2
(1595875037.485636) can0 121#2100000000000000
(1595875037.486054) can0 521#300100A2A2A2A2A2
(1595875037.486745) can0 121#2200000000040000
(1595875037.487343) can0 521#300100A2A2A2A2A2
(1595875037.487526) can0 121#2300000000002000
(1595875037.487942) can0 521#300100A2A2A2A2A2
(1595875037.488633) can0 121#2420002000520045
(1595875037.489040) can0 521#300100A2A2A2A2A2
(1595875037.489692) can0 121#2500420045004C00
(1595875037.490100) can0 521#300100A2A2A2A2A2
(1595875037.490788) can0 121#26530020002D0020
(1595875037.491333) can0 521#300100A2A2A2A2A2
(1595875037.491516) can0 121#2700570020004F00
(1595875037.491982) can0 521#300100A2A2A2A2A2
(1595875037.492664) can0 121#2820004C00200046
(1595875037.493333) can0 521#300100A2A2A2A2A2
(1595875037.493515) can0 121#290C818181818181
(1595875037.493948) can0 521#74A2A2A2A2A2A2A2
(1595875037.496665) can0 1C1#03600200A2A2A2A2
(1595875037.497051) can0 5C1#7481818181818181
(1595875037.563153) can0 568#0000FFFF7123A2A2
(1595875037.563369) can0 548#000001000000A2A2
(1595875037.563735) can0 578#0906B7C000A2A2A2
(1595875037.563945) can0 58F#8002A2A2A2A2A2A2
(1595875037.584513) can0 121#103F400111580000
(1595875037.584924) can0 521#300100A2A2A2A2A2
(1595875037.585613) can0 121#2100000000000000
(1595875037.586128) can0 521#300100A2A2A2A2A2
(1595875037.586820) can0 121#2200000000040000
(1595875037.587343) can0 521#300100A2A2A2A2A2
(1595875037.587526) can0 121#2300000000002000
(1595875037.588105) can0 521#300100A2A2A2A2A2
(1595875037.588826) can0 121#2420005200450042
(1595875037.589396) can0 521#300100A2A2A2A2A2
(1595875037.589579) can0 121#250045004C005300
(1595875037.590013) can0 521#300100A2A2A2A2A2
(1595875037.590699) can0 121#2620002D00200057
(1595875037.591112) can0 521#300100A2A2A2A2A2
(1595875037.591799) can0 121#270020004F002000
(1595875037.592332) can0 521#300100A2A2A2A2A2
(1595875037.592514) can0 121#284C002000460020
(1595875037.593093) can0 521#300100A2A2A2A2A2
(1595875037.593773) can0 121#290C818181818181
(1595875037.594346) can0 521#74A2A2A2A2A2A2A2
(1595875037.597139) can0 1C1#03600200A2A2A2A2
(1595875037.597511) can0 5C1#7481818181818181
(1595875037.663138) can0 568#0000FFFF7123A2A2
(1595875037.663355) can0 548#000001000000A2A2
(1595875037.663715) can0 578#0906B7C000A2A2A2
(1595875037.664014) can0 58F#8002A2A2A2A2A2A2
(1595875037.679268) can0 5B8#1081818181818181
(1595875037.684523) can0 121#103F400111580000
(1595875037.685026) can0 521#300100A2A2A2A2A2
(1595875037.685720) can0 121#2100000000000000
(1595875037.686130) can0 521#300100A2A2A2A2A2
(1595875037.686823) can0 121#2200000000040000
(1595875037.687343) can0 521#300100A2A2A2A2A2
(1595875037.687525) can0 121#2300000000002000
(1595875037.688337) can0 521#300100A2A2A2A2A2
(1595875037.688521) can0 121#2420004500420045
(1595875037.688919) can0 521#300100A2A2A2A2A2
(1595875037.689605) can0 121#25004C0053002000
(1595875037.690027) can0 521#300100A2A2A2A2A2
(1595875037.690706) can0 121#262D002000570020
(1595875037.691335) can0 521#300100A2A2A2A2A2
(1595875037.691518) can0 121#27004F0020004C00
(1595875037.691952) can0 521#300100A2A2A2A2A2
(1595875037.692637) can0 121#2820004600200043
(1595875037.693336) can0 521#300100A2A2A2A2A2
(1595875037.693518) can0 121#290C818181818181
(1595875037.693940) can0 521#74A2A2A2A2A2A2A2
(1595875037.696882) can0 1C1#03600200A2A2A2A2
(1595875037.697251) can0 5C1#7481818181818181
(1595875037.763127) can0 568#0000FFFF7123A2A2
(1595875037.763341) can0 548#000001000000A2A2
(1595875037.763722) can0 578#0906B7C000A2A2A2
(1595875037.764024) can0 58F#8002A2A2A2A2A2A2
(1595875037.784518) can0 121#103F400111580000
(1595875037.784938) can0 521#300100A2A2A2A2A2
(1595875037.785634) can0 121#2100000000000000
(1595875037.786061) can0 521#300100A2A2A2A2A2
(1595875037.786751) can0 121#2200000000040000
(1595875037.787332) can0 521#300100A2A2A2A2A2
(1595875037.787514) can0 121#2300000000002000
(1595875037.788074) can0 521#300100A2A2A2A2A2
(1595875037.788795) can0 121#242000420045004C
(1595875037.789306) can0 521#300100A2A2A2A2A2
(1595875037.789488) can0 121#2500530020002D00
(1595875037.789924) can0 521#300100A2A2A2A2A2
(1595875037.790602) can0 121#262000570020004F
(1595875037.791034) can0 521#300100A2A2A2A2A2
(1595875037.791715) can0 121#270020004C002000
(1595875037.792337) can0 521#300100A2A2A2A2A2
(1595875037.792518) can0 121#2846002000430020
(1595875037.793340) can0 521#300100A2A2A2A2A2
(1595875037.793522) can0 121#290C818181818181
(1595875037.793951) can0 521#74A2A2A2A2A2A2A2
(1595875037.796604) can0 1C1#03600200A2A2A2A2
(1595875037.797065) can0 5C1#7481818181818181
(1595875037.863117) can0 568#0000FFFF7123A2A2
(1595875037.863420) can0 548#000001000000A2A2
(1595875037.863733) can0 578#0906B7C000A2A2A2
(1595875037.863943) can0 58F#8002A2A2A2A2A2A2
(1595875037.864355) can0 558#C1FF3B00CF07A2A2
(1595875037.864656) can0 588#03FF32000000A2A2
(1595875037.884516) can0 121#103F400111580000
(1595875037.884941) can0 521#300100A2A2A2A2A2
(1595875037.885630) can0 121#2100000000000000
(1595875037.886090) can0 521#300100A2A2A2A2A2
(1595875037.886783) can0 121#2200000000040000
(1595875037.887341) can0 521#300100A2A2A2A2A2
(1595875037.887527) can0 121#2300000000002000
(1595875037.888076) can0 521#300100A2A2A2A2A2
(1595875037.888787) can0 121#24200045004C0053
(1595875037.889353) can0 521#300100A2A2A2A2A2
(1595875037.889528) can0 121#250020002D002000
(1595875037.889981) can0 521#300100A2A2A2A2A2
(1595875037.890649) can0 121#26570020004F0020
(1595875037.891085) can0 521#300100A2A2A2A2A2
(1595875037.891750) can0 121#27004C0020004600
(1595875037.892334) can0 521#300100A2A2A2A2A2
(1595875037.892506) can0 121#282000430020004C
(1595875037.893331) can0 521#300100A2A2A2A2A2
(1595875037.893504) can0 121#290C818181818181
(1595875037.893933) can0 521#74A2A2A2A2A2A2A2
(1595875037.896845) can0 1C1#03600200A2A2A2A2
(1595875037.897206) can0 5C1#7481818181818181
(1595875037.900715) can0 57F#00A2A2A2A2A2A2A2
(1595875037.963097) can0 568#0000FFFF7123A2A2
(1595875037.963317) can0 548#000001000000A2A2
(1595875037.963684) can0 578#0906B7C000A2A2A2
(1595875037.963988) can0 58F#8002A2A2A2A2A2A2
(1595875037.984527) can0 121#103F400111580000
(1595875037.984931) can0 521#300100A2A2A2A2A2
(1595875037.985629) can0 121#2100000000000000
(1595875037.986059) can0 521#300100A2A2A2A2A2
(1595875037.986751) can0 121#2200000000040000
(1595875037.987159) can0 521#300100A2A2A2A2A2
(1595875037.987902) can0 121#2300000000002000
(1595875037.988466) can0 521#300100A2A2A2A2A2
(1595875037.988617) can0 121#2420004C00530020
(1595875037.989360) can0 521#300100A2A2A2A2A2
(1595875037.989549) can0 121#25002D0020005700
(1595875037.989978) can0 521#300100A2A2A2A2A2
(1595875037.990771) can0 121#2620004F0020004C
(1595875037.991362) can0 521#300100A2A2A2A2A2
(1595875037.991512) can0 121#2700200046002000
(1595875037.991973) can0 521#300100A2A2A2A2A2
(1595875037.992734) can0 121#28430020004C0020
(1595875037.993343) can0 521#300100A2A2A2A2A2
(1595875037.993494) can0 121#290C818181818181
(1595875037.993939) can0 521#74A2A2A2A2A2A2A2
(1595875037.996848) can0 1C1#03600200A2A2A2A2
(1595875037.997267) can0 5C1#7481818181818181
(1595875038.063059) can0 568#0000FFFF7123A2A2
(1595875038.063299) can0 548#000001000000A2A2
(1595875038.063651) can0 578#0906B7C000A2A2A2
(1595875038.063968) can0 58F#8002A2A2A2A2A2A2
(1595875038.084525) can0 121#103F400111580000
(1595875038.084959) can0 521#300100A2A2A2A2A2
(1595875038.085658) can0 121#2100000000000000
(1595875038.086080) can0 521#300100A2A2A2A2A2
(1595875038.086777) can0 121#2200000000040000
(1595875038.087346) can0 521#300100A2A2A2A2A2
(1595875038.087531) can0 121#2300000000002000
(1595875038.088350) can0 521#300100A2A2A2A2A2
(1595875038.088534) can0 121#242000530020002D
(1595875038.088963) can0 521#300100A2A2A2A2A2
(1595875038.089645) can0 121#2500200057002000
(1595875038.090146) can0 521#300100A2A2A2A2A2
(1595875038.090833) can0 121#264F0020004C0020
(1595875038.091348) can0 521#300100A2A2A2A2A2
(1595875038.091533) can0 121#2700460020004300
(1595875038.091939) can0 521#300100A2A2A2A2A2
(1595875038.092628) can0 121#2820004C00200055
(1595875038.093335) can0 521#300100A2A2A2A2A2
(1595875038.093521) can0 121#290C818181818181
(1595875038.093942) can0 521#74A2A2A2A2A2A2A2
(1595875038.096553) can0 1C1#03600200A2A2A2A2
(1595875038.096926) can0 5C1#7481818181818181
(1595875038.163044) can0 568#0000FFFF7123A2A2
(1595875038.163268) can0 548#000001000000A2A2
(1595875038.163632) can0 578#0906B7C000A2A2A2
(1595875038.163944) can0 58F#8002A2A2A2A2A2A2
(1595875038.179308) can0 5B8#1081818181818181
(1595875038.184525) can0 121#103F400111580000
(1595875038.184942) can0 521#300100A2A2A2A2A2
(1595875038.185634) can0 121#2100000000000000
(1595875038.186050) can0 521#300100A2A2A2A2A2
(1595875038.186788) can0 121#2200000000040000
(1595875038.187411) can0 521#300100A2A2A2A2A2
(1595875038.187595) can0 121#2300000000002000
(1595875038.188119) can0 521#300100A2A2A2A2A2
(1595875038.188966) can0 121#24200020002D0020
(1595875038.189554) can0 521#300100A2A2A2A2A2
(1595875038.189737) can0 121#2500570020004F00
(1595875038.190158) can0 521#300100A2A2A2A2A2
(1595875038.191012) can0 121#2620004C00200046
(1595875038.191411) can0 521#300100A2A2A2A2A2
(1595875038.192094) can0 121#2700200043002000
(1595875038.192644) can0 521#300100A2A2A2A2A2
(1595875038.192829) can0 121#284C002000550020
(1595875038.193241) can0 521#300100A2A2A2A2A2
(1595875038.194096) can0 121#290C818181818181
(1595875038.194486) can0 521#74A2A2A2A2A2A2A2
(1595875038.197342) can0 1C1#03600200A2A2A2A2
(1595875038.197716) can0 5C1#7481818181818181
(1595875038.263037) can0 568#0000FFFF7123A2A2
(1595875038.263254) can0 548#000001000000A2A2
(1595875038.263637) can0 578#0906B7C000A2A2A2
(1595875038.263938) can0 58F#8002A2A2A2A2A2A2
(1595875038.284527) can0 121#103F400111580000
(1595875038.284943) can0 521#300100A2A2A2A2A2
(1595875038.286518) can0 121#2100000000000000
(1595875038.286928) can0 521#300100A2A2A2A2A2
(1595875038.287636) can0 121#2200000000040000
(1595875038.288342) can0 521#300100A2A2A2A2A2
(1595875038.288525) can0 121#2300000000002000
(1595875038.288954) can0 521#300100A2A2A2A2A2
(1595875038.289820) can0 121#2420002D00200057
(1595875038.290240) can0 521#300100A2A2A2A2A2
(1595875038.290942) can0 121#250020004F002000
(1595875038.291361) can0 521#300100A2A2A2A2A2
(1595875038.292029) can0 121#264C002000460020
(1595875038.292444) can0 521#300100A2A2A2A2A2
(1595875038.293123) can0 121#2700430020004C00
(1595875038.293667) can0 521#300100A2A2A2A2A2
(1595875038.293851) can0 121#2820005500200042
(1595875038.294347) can0 521#300100A2A2A2A2A2
(1595875038.295174) can0 121#290C818181818181
(1595875038.295700) can0 521#74A2A2A2A2A2A2A2
(1595875038.298442) can0 1C1#03600200A2A2A2A2
(1595875038.298860) can0 5C1#7481818181818181
(1595875038.363023) can0 568#0000FFFF7123A2A2
(1595875038.363373) can0 548#000001000000A2A2
(1595875038.363724) can0 578#0906B7C000A2A2A2
(1595875038.364026) can0 58F#8002A2A2A2A2A2A2
(1595875038.364326) can0 558#C1FF3B00CF07A2A2
(1595875038.364623) can0 588#03FF32000000A2A2
(1595875038.384524) can0 121#103F400111580000
(1595875038.384929) can0 521#300100A2A2A2A2A2
(1595875038.386516) can0 121#2100000000000000
(1595875038.386956) can0 521#300100A2A2A2A2A2
(1595875038.387648) can0 121#2200000000040000
(1595875038.388084) can0 521#300100A2A2A2A2A2
(1595875038.388826) can0 121#2300000000002000
(1595875038.389349) can0 521#300100A2A2A2A2A2
(1595875038.389531) can0 121#2420002000570020
(1595875038.390040) can0 521#300100A2A2A2A2A2
(1595875038.390724) can0 121#25004F0020004C00
(1595875038.391334) can0 521#300100A2A2A2A2A2
(1595875038.391516) can0 121#2620004600200043
(1595875038.391937) can0 521#300100A2A2A2A2A2
(1595875038.392621) can0 121#270020004C002000
(1595875038.393332) can0 521#300100A2A2A2A2A2
(1595875038.393513) can0 121#2855002000420020
(1595875038.393953) can0 521#300100A2A2A2A2A2
(1595875038.394631) can0 121#290C818181818181
(1595875038.395048) can0 521#74A2A2A2A2A2A2A2
(1595875038.398025) can0 1C1#03600200A2A2A2A2
(1595875038.398393) can0 5C1#7481818181818181
(1595875038.400635) can0 57F#00A2A2A2A2A2A2A2
(1595875038.462981) can0 568#0000FFFF7123A2A2
(1595875038.463196) can0 548#000001000000A2A2
(1595875038.463564) can0 578#0906B7C000A2A2A2
(1595875038.463824) can0 58F#8002A2A2A2A2A2A2
(1595875038.484518) can0 121#103F400111580000
(1595875038.484942) can0 521#300100A2A2A2A2A2
(1595875038.485714) can0 121#2100000000000000
(1595875038.486124) can0 521#300100A2A2A2A2A2
(1595875038.486899) can0 121#2200000000040000
(1595875038.487475) can0 521#300100A2A2A2A2A2
(1595875038.487626) can0 121#2300000000002000
(1595875038.488352) can0 521#300100A2A2A2A2A2
(1595875038.488538) can0 121#242000570020004F
(1595875038.488976) can0 521#300100A2A2A2A2A2
(1595875038.489777) can0 121#250020004C002000
(1595875038.490364) can0 521#300100A2A2A2A2A2
(1595875038.490515) can0 121#2646002000430020
(1595875038.491041) can0 521#300100A2A2A2A2A2
(1595875038.491811) can0 121#27004C0020005500
(1595875038.492393) can0 521#300100A2A2A2A2A2
(1595875038.492545) can0 121#2820004200200020
(1595875038.493112) can0 521#300100A2A2A2A2A2
(1595875038.493836) can0 121#290C818181818181
(1595875038.494277) can0 521#74A2A2A2A2A2A2A2
(1595875038.497099) can0 1C1#03600200A2A2A2A2
(1595875038.497466) can0 5C1#7481818181818181
(1595875038.563016) can0 568#0000FFFF7123A2A2
(1595875038.563238) can0 548#000001000000A2A2
(1595875038.563616) can0 578#0906B7C000A2A2A2
(1595875038.563928) can0 58F#8002A2A2A2A2A2A2
(1595875038.584521) can0 121#103F400111580000
(1595875038.584961) can0 521#300100A2A2A2A2A2
(1595875038.586522) can0 121#2100000000000000
(1595875038.586949) can0 521#300100A2A2A2A2A2
(1595875038.587771) can0 121#2200000000040000
(1595875038.588336) can0 521#300100A2A2A2A2A2
(1595875038.588520) can0 121#2300000000002000
(1595875038.589141) can0 521#300100A2A2A2A2A2
(1595875038.589875) can0 121#24200020004F0020
(1595875038.590501) can0 121#25004C0020004600
(1595875038.590688) can0 521#300100A2A2A2A2A2
(1595875038.591095) can0 521#300100A2A2A2A2A2
(1595875038.591820) can0 121#262000430020004C
(1595875038.592328) can0 521#300100A2A2A2A2A2
(1595875038.592512) can0 121#2700200055002000
(1595875038.593132) can0 521#300100A2A2A2A2A2
(1595875038.593866) can0 121#2842002000200020
(1595875038.594395) can0 521#300100A2A2A2A2A2
(1595875038.594578) can0 121#290C818181818181
(1595875038.595037) can0 521#74A2A2A2A2A2A2A2
(1595875038.598053) can0 1C1#03600200A2A2A2A2
(1595875038.598421) can0 5C1#7481818181818181
(1595875038.662940) can0 568#0000FFFF7123A2A2
(1595875038.663160) can0 548#000001000000A2A2
(1595875038.663579) can0 578#0906B7C000A2A2A2
(1595875038.663876) can0 58F#8002A2A2A2A2A2A2
(1595875038.679350) can0 5B8#1081818181818181
(1595875038.684524) can0 121#103F400111580000
(1595875038.684940) can0 521#300100A2A2A2A2A2
(1595875038.685673) can0 121#2100000000000000
(1595875038.686083) can0 521#300100A2A2A2A2A2
(1595875038.686799) can0 121#2200000000040000
(1595875038.687347) can0 521#300100A2A2A2A2A2
(1595875038.687559) can0 121#2300000000002000
(1595875038.688024) can0 521#300100A2A2A2A2A2
(1595875038.688734) can0 121#2420004F0020004C
(1595875038.689340) can0 521#300100A2A2A2A2A2
(1595875038.689523) can0 121#2500200046002000
(1595875038.690051) can0 521#300100A2A2A2A2A2
(1595875038.690730) can0 121#26430020004C0020
(1595875038.691342) can0 521#300100A2A2A2A2A2
(1595875038.691548) can0 121#2700550020004200
(1595875038.691919) can0 521#300100A2A2A2A2A2
(1595875038.692605) can0 121#2820002000200020
(1595875038.693080) can0 521#300100A2A2A2A2A2
(1595875038.693753) can0 121#290C818181818181
(1595875038.694254) can0 521#74A2A2A2A2A2A2A2
(1595875038.697067) can0 1C1#03600200A2A2A2A2
(1595875038.697436) can0 5C1#7481818181818181
(1595875038.762939) can0 568#0000FFFF7123A2A2
(1595875038.763237) can0 548#000001000000A2A2
(1595875038.763526) can0 578#0906B7C000A2A2A2
(1595875038.763838) can0 58F#8002A2A2A2A2A2A2
(1595875038.784520) can0 121#103F400111580000
(1595875038.784931) can0 521#300100A2A2A2A2A2
(1595875038.785636) can0 121#2100000000000000
(1595875038.786117) can0 521#300100A2A2A2A2A2
(1595875038.786807) can0 121#2200000000040000
(1595875038.787342) can0 521#300100A2A2A2A2A2
(1595875038.787524) can0 121#2300000000002000
(1595875038.788002) can0 521#300100A2A2A2A2A2
(1595875038.788714) can0 121#24200020004C0020
(1595875038.789337) can0 521#300100A2A2A2A2A2
(1595875038.789538) can0 121#2500460020004300
(1595875038.789927) can0 521#300100A2A2A2A2A2
(1595875038.790595) can0 121#2620004C00200055
(1595875038.791005) can0 521#300100A2A2A2A2A2
(1595875038.791678) can0 121#2700200042002000
(1595875038.792343) can0 521#300100A2A2A2A2A2
(1595875038.792551) can0 121#2820002000200020
(1595875038.793085) can0 521#300100A2A2A2A2A2
(1595875038.793757) can0 121#290C818181818181
(1595875038.794241) can0 521#74A2A2A2A2A2A2A2
(1595875038.797081) can0 1C1#03600200A2A2A2A2
(1595875038.797449) can0 5C1#7481818181818181
(1595875038.862910) can0 568#0000FFFF7123A2A2
(1595875038.863206) can0 548#000001000000A2A2
(1595875038.863497) can0 578#0906B7C000A2A2A2
(1595875038.863787) can0 58F#8002A2A2A2A2A2A2
(1595875038.864137) can0 558#C1FF3B00CF07A2A2
(1595875038.864552) can0 588#03FF32000000A2A2
(1595875038.884517) can0 121#103F400111580000
(1595875038.884939) can0 521#300100A2A2A2A2A2
(1595875038.885620) can0 121#2100000000000000
(1595875038.886052) can0 521#300100A2A2A2A2A2
(1595875038.886735) can0 121#2200000000040000
(1595875038.887345) can0 521#300100A2A2A2A2A2
(1595875038.887548) can0 121#2300000000002000
(1595875038.887985) can0 521#300100A2A2A2A2A2
(1595875038.888660) can0 121#2420004C00200046
(1595875038.889337) can0 521#300100A2A2A2A2A2
(1595875038.889520) can0 121#2500200043002000
(1595875038.890081) can0 521#300100A2A2A2A2A2
(1595875038.890765) can0 121#264C002000550020
(1595875038.891327) can0 521#300100A2A2A2A2A2
(1595875038.891503) can0 121#2700420020002000
(1595875038.891918) can0 521#300100A2A2A2A2A2
(1595875038.892607) can0 121#2820002000200020
(1595875038.893081) can0 521#300100A2A2A2A2A2
(1595875038.893749) can0 121#290C818181818181
(1595875038.894335) can0 521#74A2A2A2A2A2A2A2
(1595875038.897065) can0 1C1#03600200A2A2A2A2
(1595875038.897438) can0 5C1#7481818181818181
(1595875038.900563) can0 57F#00A2A2A2A2A2A2A2
(1595875038.962916) can0 568#0000FFFF7123A2A2
(1595875038.963141) can0 548#000001000000A2A2
(1595875038.963512) can0 578#0906B7C000A2A2A2
(1595875038.963725) can0 58F#8002A2A2A2A2A2A2
(1595875038.984524) can0 121#103F400111580000
(1595875038.984921) can0 521#300100A2A2A2A2A2
(1595875038.985613) can0 121#2100000000000000
(1595875038.986051) can0 521#300100A2A2A2A2A2
(1595875038.986739) can0 121#2200000000040000
(1595875038.987149) can0 521#300100A2A2A2A2A2
(1595875038.987838) can0 121#2300000000002000
(1595875038.988358) can0 521#300100A2A2A2A2A2
(1595875038.988540) can0 121#2420002000460020
(1595875038.989079) can0 521#300100A2A2A2A2A2
(1595875038.989761) can0 121#2500430020004C00
(1595875038.990483) can0 521#300100A2A2A2A2A2
(1595875038.990666) can0 121#2620005500200042
(1595875038.991104) can0 521#300100A2A2A2A2A2
(1595875038.991796) can0 121#2700200020002000
(1595875038.992353) can0 521#300100A2A2A2A2A2
(1595875038.992535) can0 121#2820002000200020
(1595875038.993120) can0 521#300100A2A2A2A2A2
(1595875038.993795) can0 121#290C818181818181
(1595875038.994190) can0 521#74A2A2A2A2A2A2A2
(1595875038.997024) can0 1C1#03600200A2A2A2A2
(1595875038.997398) can0 5C1#7481818181818181
(1595875039.062898) can0 568#0000FFFF7123A2A2
(1595875039.063112) can0 548#000001000000A2A2
(1595875039.063504) can0 578#0906B7C000A2A2A2
(1595875039.063800) can0 58F#8002A2A2A2A2A2A2
(1595875039.084527) can0 121#103F400111580000
(1595875039.084930) can0 521#300100A2A2A2A2A2
(1595875039.085633) can0 121#2100000000000000
(1595875039.086067) can0 521#300100A2A2A2A2A2
(1595875039.086760) can0 121#2200000000040000
(1595875039.087352) can0 521#300100A2A2A2A2A2
(1595875039.087535) can0 121#2300000000002000
(1595875039.087945) can0 521#300100A2A2A2A2A2
(1595875039.088627) can0 121#2420004600200043
(1595875039.089359) can0 521#300100A2A2A2A2A2
(1595875039.089544) can0 121#250020004C002000
(1595875039.089992) can0 521#300100A2A2A2A2A2
(1595875039.090670) can0 121#2655002000420020
(1595875039.091098) can0 521#300100A2A2A2A2A2
(1595875039.091788) can0 121#2700200020002000
(1595875039.092340) can0 521#300100A2A2A2A2A2
(1595875039.092523) can0 121#2820002000200020
(1595875039.093006) can0 521#300100A2A2A2A2A2
(1595875039.093682) can0 121#290C818181818181
(1595875039.094197) can0 521#74A2A2A2A2A2A2A2
(1595875039.096996) can0 1C1#03600200A2A2A2A2
(1595875039.097367) can0 5C1#7481818181818181
(1595875039.162877) can0 568#0000FFFF7123A2A2
(1595875039.163099) can0 548#000001000000A2A2
(1595875039.163469) can0 578#0906B7C000A2A2A2
(1595875039.163765) can0 58F#8002A2A2A2A2A2A2
(1595875039.179387) can0 5B8#1081818181818181
(1595875039.184520) can0 121#103F400111580000
(1595875039.184929) can0 521#300100A2A2A2A2A2
(1595875039.185620) can0 121#2100000000000000
(1595875039.186042) can0 521#300100A2A2A2A2A2
(1595875039.186732) can0 121#2200000000040000
(1595875039.187154) can0 521#300100A2A2A2A2A2
(1595875039.187841) can0 121#2300000000002000
(1595875039.188351) can0 521#300100A2A2A2A2A2
(1595875039.188538) can0 121#2420002000430020
(1595875039.189077) can0 521#300100A2A2A2A2A2
(1595875039.189761) can0 121#25004C0020005500
(1595875039.190486) can0 521#300100A2A2A2A2A2
(1595875039.190669) can0 121#2620004200200020
(1595875039.191133) can0 521#300100A2A2A2A2A2
(1595875039.191824) can0 121#2700200020002000
(1595875039.192352) can0 521#300100A2A2A2A2A2
(1595875039.192535) can0 121#2820002000200020
(1595875039.192998) can0 521#300100A2A2A2A2A2
(1595875039.193681) can0 121#290C818181818181
(1595875039.194265) can0 521#74A2A2A2A2A2A2A2
(1595875039.196983) can0 1C1#03600200A2A2A2A2
(1595875039.197345) can0 5C1#7481818181818181
(1595875039.262844) can0 568#0000FFFF7123A2A2
(1595875039.263218) can0 548#000001000000A2A2
(1595875039.263434) can0 578#0906B7C000A2A2A2
(1595875039.263806) can0 58F#8002A2A2A2A2A2A2
(1595875039.284537) can0 121#103F400111580000
(1595875039.284946) can0 521#300100A2A2A2A2A2
(1595875039.285637) can0 121#2100000000000000
(1595875039.286069) can0 521#300100A2A2A2A2A2
(1595875039.286757) can0 121#2200000000040000
(1595875039.287352) can0 521#300100A2A2A2A2A2
(1595875039.287561) can0 121#2300000000002000
(1595875039.288017) can0 521#300100A2A2A2A2A2
(1595875039.288704) can0 121#242000430020004C
(1595875039.289141) can0 521#300100A2A2A2A2A2
(1595875039.289829) can0 121#2500200055002000
(1595875039.290508) can0 121#2642002000200020
(1595875039.290695) can0 521#300100A2A2A2A2A2
(1595875039.291103) can0 521#300100A2A2A2A2A2
(1595875039.291789) can0 121#2700200020002000
(1595875039.292350) can0 521#300100A2A2A2A2A2
(1595875039.292557) can0 121#2820002000200020
(1595875039.293056) can0 521#300100A2A2A2A2A2
(1595875039.293731) can0 121#290C818181818181
(1595875039.294178) can0 521#74A2A2A2A2A2A2A2
(1595875039.296981) can0 1C1#03600200A2A2A2A2
(1595875039.297352) can0 5C1#7481818181818181
(1595875039.362821) can0 568#0000FFFF7123A2A2
(1595875039.363146) can0 548#000001000000A2A2
(1595875039.363439) can0 578#0906B7C000A2A2A2
(1595875039.363729) can0 58F#8002A2A2A2A2A2A2
(1595875039.364069) can0 558#C1FF3B00CF07A2A2
(1595875039.364360) can0 588#03FF32000000A2A2
(1595875039.384528) can0 121#103F400111580000
(1595875039.384939) can0 521#300100A2A2A2A2A2
(1595875039.385687) can0 121#2100000000000000
(1595875039.386132) can0 521#300100A2A2A2A2A2
(1595875039.386873) can0 121#2200000000040000
(1595875039.387368) can0 521#300100A2A2A2A2A2
(1595875039.387550) can0 121#2300000000002000
(1595875039.388057) can0 521#300100A2A2A2A2A2
(1595875039.388828) can0 121#24200020004C0020
(1595875039.389340) can0 521#300100A2A2A2A2A2
(1595875039.389522) can0 121#2500550020004200
(1595875039.389926) can0 521#300100A2A2A2A2A2
(1595875039.390663) can0 121#2620002000200020
(1595875039.391077) can0 521#300100A2A2A2A2A2
(1595875039.391817) can0 121#2700200020002000
(1595875039.392366) can0 521#300100A2A2A2A2A2
(1595875039.392549) can0 121#2820002000200020
(1595875039.392947) can0 521#300100A2A2A2A2A2
(1595875039.393652) can0 121#290C818181818181
(1595875039.394123) can0 521#74A2A2A2A2A2A2A2
(1595875039.396940) can0 1C1#03600200A2A2A2A2
(1595875039.397305) can0 5C1#7481818181818181
(1595875039.400433) can0 57F#00A2A2A2A2A2A2A2
(1595875039.462808) can0 568#0000FFFF7123A2A2
(1595875039.463039) can0 548#000001000000A2A2
(1595875039.463397) can0 578#0906B7C000A2A2A2
(1595875039.463695) can0 58F#8002A2A2A2A2A2A2
(1595875039.484526) can0 121#103F400111580000
(1595875039.484942) can0 521#300100A2A2A2A2A2
(1595875039.485767) can0 121#2100000000000000
(1595875039.486372) can0 521#300100A2A2A2A2A2
(1595875039.486555) can0 121#2200000000040000
(1595875039.486973) can0 521#300100A2A2A2A2A2
(1595875039.487768) can0 121#2300000000002000
(1595875039.488343) can0 521#300100A2A2A2A2A2
(1595875039.488552) can0 121#2420004C00200055
(1595875039.489069) can0 521#300100A2A2A2A2A2
(1595875039.489756) can0 121#2500200042002000
(1595875039.490451) can0 521#300100A2A2A2A2A2
(1595875039.490660) can0 121#2620002000200020
(1595875039.491076) can0 521#300100A2A2A2A2A2
(1595875039.491767) can0 121#2700200020002000
(1595875039.492341) can0 521#300100A2A2A2A2A2
(1595875039.492549) can0 121#2820002000200020
(1595875039.492945) can0 521#300100A2A2A2A2A2
(1595875039.493624) can0 121#290C818181818181
(1595875039.494163) can0 521#74A2A2A2A2A2A2A2
(1595875039.496887) can0 1C1#03600200A2A2A2A2
(1595875039.497275) can0 5C1#7481818181818181
(1595875039.562810) can0 568#0000FFFF7123A2A2
(1595875039.563157) can0 548#000001000000A2A2
(1595875039.563491) can0 578#0906B7C000A2A2A2
(1595875039.563770) can0 58F#8002A2A2A2A2A2A2
(1595875039.584525) can0 121#103F400111580000
(1595875039.584936) can0 521#300100A2A2A2A2A2
(1595875039.585644) can0 121#2100000000000000
(1595875039.586360) can0 521#300100A2A2A2A2A2
(1595875039.586561) can0 121#2200000000040000
(1595875039.586961) can0 521#300100A2A2A2A2A2
(1595875039.587645) can0 121#2300000000002000
(1595875039.588048) can0 521#300100A2A2A2A2A2
(1595875039.588842) can0 121#2420002000550020
(1595875039.589341) can0 521#300100A2A2A2A2A2
(1595875039.589525) can0 121#2500420020002000
(1595875039.589931) can0 521#300100A2A2A2A2A2
(1595875039.590612) can0 121#2620002000200020
(1595875039.591040) can0 521#300100A2A2A2A2A2
(1595875039.591725) can0 121#2700200020002000
(1595875039.592356) can0 521#300100A2A2A2A2A2
(1595875039.592553) can0 121#2820002000200020
(1595875039.593011) can0 521#300100A2A2A2A2A2
(1595875039.593689) can0 121#290C818181818181
(1595875039.594135) can0 521#74A2A2A2A2A2A2A2
(1595875039.596935) can0 1C1#03600200A2A2A2A2
(1595875039.597352) can0 5C1#7481818181818181
(1595875039.662796) can0 568#0000FFFF7123A2A2
(1595875039.663015) can0 548#000001000000A2A2
(1595875039.663389) can0 578#0906B7C000A2A2A2
(1595875039.663730) can0 58F#8002A2A2A2A2A2A2
(1595875039.679427) can0 5B8#1081818181818181
(1595875039.684528) can0 121#103F400111580000
(1595875039.685365) can0 521#300100A2A2A2A2A2
(1595875039.685554) can0 121#2100000000000000
(1595875039.685965) can0 521#300100A2A2A2A2A2
(1595875039.686665) can0 121#2200000000040000
(1595875039.687081) can0 521#300100A2A2A2A2A2
(1595875039.687783) can0 121#2300000000002000
(1595875039.688358) can0 521#300100A2A2A2A2A2
(1595875039.688543) can0 121#2420005500200042
(1595875039.689083) can0 521#300100A2A2A2A2A2
(1595875039.689778) can0 121#2500200020002000
(1595875039.690480) can0 521#300100A2A2A2A2A2
(1595875039.690664) can0 121#2620002000200020
(1595875039.691356) can0 521#300100A2A2A2A2A2
(1595875039.691542) can0 121#2700200020002000
(1595875039.691950) can0 521#300100A2A2A2A2A2
(1595875039.692650) can0 121#2820002000200020
(1595875039.693059) can0 521#300100A2A2A2A2A2
(1595875039.693747) can0 121#290C818181818181
(1595875039.694159) can0 521#74A2A2A2A2A2A2A2
(1595875039.696979) can0 1C1#03600200A2A2A2A2
(1595875039.697336) can0 5C1#7481818181818181
(1595875039.762749) can0 568#0000FFFF7123A2A2
(1595875039.762969) can0 548#000001000000A2A2
(1595875039.763345) can0 578#0906B7C000A2A2A2
(1595875039.763558) can0 58F#8002A2A2A2A2A2A2
(1595875039.784529) can0 121#103F400111580000
(1595875039.784939) can0 521#300100A2A2A2A2A2
(1595875039.785687) can0 121#2100000000000000
(1595875039.786119) can0 521#300100A2A2A2A2A2
(1595875039.786857) can0 121#2200000000040000
(1595875039.787361) can0 521#300100A2A2A2A2A2
(1595875039.787547) can0 121#2300000000002000
(1595875039.788067) can0 521#300100A2A2A2A2A2
(1595875039.788839) can0 121#2420002000420020
(1595875039.789318) can0 521#300100A2A2A2A2A2
(1595875039.789500) can0 121#2500200020002000
(1595875039.789964) can0 521#300100A2A2A2A2A2
(1595875039.790703) can0 121#2620002000200020
(1595875039.791118) can0 521#300100A2A2A2A2A2
(1595875039.791855) can0 121#2700200020002000
(1595875039.792356) can0 521#300100A2A2A2A2A2
(1595875039.792537) can0 121#2820002000200020
(1595875039.793075) can0 521#300100A2A2A2A2A2
(1595875039.793807) can0 121#290C818181818181
(1595875039.794208) can0 521#74A2A2A2A2A2A2A2
(1595875039.797003) can0 1C1#03600200A2A2A2A2
(1595875039.797378) can0 5C1#7481818181818181
(1595875039.862730) can0 568#0000FFFF7123A2A2
(1595875039.863023) can0 548#000001000000A2A2
(1595875039.863361) can0 578#0906B7C000A2A2A2
(1595875039.863650) can0 58F#8002A2A2A2A2A2A2
(1595875039.863962) can0 558#C1FF3B00CF07A2A2
(1595875039.864281) can0 588#03FF32000000A2A2
(1595875039.884529) can0 121#103F400111580000
(1595875039.884940) can0 521#300100A2A2A2A2A2
(1595875039.885686) can0 121#2100000000000000
(1595875039.886146) can0 521#300100A2A2A2A2A2
(1595875039.886883) can0 121#2200000000040000
(1595875039.887363) can0 521#300100A2A2A2A2A2
(1595875039.887545) can0 121#2300000000002000
(1595875039.887974) can0 521#300100A2A2A2A2A2
(1595875039.888744) can0 121#2420004200200020
(1595875039.889135) can0 521#300100A2A2A2A2A2
(1595875039.889868) can0 121#2500200020002000
(1595875039.890419) can0 521#300100A2A2A2A2A2
(1595875039.890601) can0 121#2620002000200020
(1595875039.891042) can0 521#300100A2A2A2A2A2
(1595875039.891781) can0 121#2700200020002000
(1595875039.892372) can0 521#300100A2A2A2A2A2
(1595875039.892555) can0 121#2820002000200020
(1595875039.892953) can0 521#300100A2A2A2A2A2
(1595875039.893683) can0 121#290C818181818181
(1595875039.894088) can0 521#74A2A2A2A2A2A2A2
(1595875039.896924) can0 1C1#03600200A2A2A2A2
(1595875039.897317) can0 5C1#7481818181818181
(1595875039.900323) can0 57F#00A2A2A2A2A2A2A2
(1595875039.962721) can0 568#0000FFFF7123A2A2
(1595875039.962937) can0 548#000001000000A2A2
(1595875039.963323) can0 578#0906B7C000A2A2A2
(1595875039.963618) can0 58F#8002A2A2A2A2A2A2
(1595875039.984522) can0 121#103F400111580000
(1595875039.984953) can0 521#300100A2A2A2A2A2
(1595875039.985647) can0 121#2100000000000000
(1595875039.986058) can0 521#300100A2A2A2A2A2
(1595875039.986760) can0 121#2200000000040000
(1595875039.987363) can0 521#300100A2A2A2A2A2
(1595875039.987546) can0 121#2300000000002000
(1595875039.987952) can0 521#300100A2A2A2A2A2
(1595875039.988639) can0 121#2420002000200020
(1595875039.989050) can0 521#300100A2A2A2A2A2
(1595875039.989733) can0 121#2500200020002000
(1595875039.990400) can0 521#300100A2A2A2A2A2
(1595875039.990582) can0 121#2620002000200020
(1595875039.991027) can0 521#300100A2A2A2A2A2
(1595875039.991714) can0 121#2700200020002000
(1595875039.992132) can0 521#300100A2A2A2A2A2
(1595875039.992819) can0 121#2820002000200020
(1595875039.993352) can0 521#300100A2A2A2A2A2
(1595875039.993533) can0 121#290C818181818181
(1595875039.994001) can0 521#74A2A2A2A2A2A2A2
(1595875039.996854) can0 1C1#03600200A2A2A2A2
(1595875039.997270) can0 5C1#7481818181818181
(1595875040.062676) can0 568#0000FFFF7123A2A2
(1595875040.062897) can0 548#000001000000A2A2
(1595875040.063251) can0 578#0906B7C000A2A2A2
(1595875040.063590) can0 58F#8002A2A2A2A2A2A2
(1595875040.084538) can0 121#103F400111580000
(1595875040.084955) can0 521#300100A2A2A2A2A2
(1595875040.085729) can0 121#2100000000000000
(1595875040.086151) can0 521#300100A2A2A2A2A2
(1595875040.086837) can0 121#2200000000040000
(1595875040.087249) can0 521#300100A2A2A2A2A2
(1595875040.087949) can0 121#2300000000002000
(1595875040.088342) can0 521#300100A2A2A2A2A2
(1595875040.089025) can0 121#2420005200450042
(1595875040.089418) can0 521#300100A2A2A2A2A2
(1595875040.090086) can0 121#250045004C005300
(1595875040.090653) can0 521#300100A2A2A2A2A2
(1595875040.090822) can0 121#2620002D00200057
(1595875040.091450) can0 521#300100A2A2A2A2A2
(1595875040.091630) can0 121#270020004F002000
(1595875040.092069) can0 521#300100A2A2A2A2A2
(1595875040.092739) can0 121#284C002000460020
(1595875040.093362) can0 521#300100A2A2A2A2A2
(1595875040.093537) can0 121#290C818181818181
(1595875040.094016) can0 521#74A2A2A2A2A2A2A2
(1595875040.096813) can0 1C1#03600200A2A2A2A2
(1595875040.097180) can0 5C1#7481818181818181
(1595875040.162751) can0 568#0000FFFF7123A2A2
(1595875040.162971) can0 548#000001000000A2A2
(1595875040.163348) can0 578#0906B7C000A2A2A2
(1595875040.163661) can0 58F#8002A2A2A2A2A2A2
(1595875040.179466) can0 5B8#1081818181818181
(1595875040.262651) can0 568#0000FFFF7123A2A2
(1595875040.262894) can0 548#000001000000A2A2
(1595875040.263260) can0 578#0906B7C000A2A2A2
(1595875040.263480) can0 58F#8002A2A2A2A2A2A2
(1595875040.362613) can0 568#0000FFFF7123A2A2
(1595875040.362916) can0 548#000001000000A2A2
(1595875040.363208) can0 578#0906B7C000A2A2A2
(1595875040.363497) can0 58F#8002A2A2A2A2A2A2
(1595875040.363905) can0 558#C1FF3B00CF07A2A2
(1595875040.364205) can0 588#03FF32000000A2A2
(1595875040.400282) can0 57F#00A2A2A2A2A2A2A2
(1595875040.462692) can0 568#0000FFFF7123A2A2
(1595875040.462996) can0 548#000001000000A2A2
(1595875040.463212) can0 578#0906B7C000A2A2A2
(1595875040.463554) can0 58F#8002A2A2A2A2A2A2
(1595875040.562584) can0 568#0000FFFF7123A2A2
(1595875040.562885) can0 548#000001000000A2A2
(1595875040.563091) can0 578#0906B7C000A2A2A2
(1595875040.563465) can0 58F#8002A2A2A2A2A2A2
(1595875040.662586) can0 568#0000FFFF7123A2A2
(1595875040.662804) can0 548#000001000000A2A2
(1595875040.663172) can0 578#0906B7C000A2A2A2
(1595875040.663577) can0 58F#8002A2A2A2A2A2A2
(1595875040.679501) can0 5B8#1081818181818181
(1595875040.762612) can0 568#0000FFFF7123A2A2
(1595875040.762915) can0 548#000001000000A2A2
(1595875040.763205) can0 578#0906B7C000A2A2A2
(1595875040.763495) can0 58F#8002A2A2A2A2A2A2
(1595875040.862542) can0 568#0000FFFF7123A2A2
(1595875040.862850) can0 548#000001000000A2A2
(1595875040.863141) can0 578#0906B7C000A2A2A2
(1595875040.863350) can0 58F#8002A2A2A2A2A2A2
(1595875040.863746) can0 558#C1FF3B00CF07A2A2
(1595875040.864074) can0 588#03FF32000000A2A2
(1595875040.900145) can0 57F#00A2A2A2A2A2A2A2
(1595875040.962506) can0 568#0000FFFF7123A2A2
(1595875040.962737) can0 548#000001000000A2A2
(1595875040.963077) can0 578#0906B7C000A2A2A2
(1595875040.963430) can0 58F#8002A2A2A2A2A2A2
(1595875041.062473) can0 568#0000FFFF7123A2A2
(1595875041.062785) can0 548#000001000000A2A2
(1595875041.063100) can0 578#0906B7C000A2A2A2
(1595875041.063390) can0 58F#8002A2A2A2A2A2A2
(1595875041.162473) can0 568#0000FFFF7123A2A2
(1595875041.162774) can0 548#000001000000A2A2
(1595875041.163072) can0 578#0906B7C000A2A2A2
(1595875041.163285) can0 58F#8002A2A2A2A2A2A2
(1595875041.179544) can0 5B8#1081818181818181
(1595875041.262458) can0 568#0000FFFF7123A2A2
(1595875041.262675) can0 548#000001000000A2A2
(1595875041.263064) can0 578#0906B7C000A2A2A2
(1595875041.263386) can0 58F#8002A2A2A2A2A2A2
(1595875041.362426) can0 568#0000FFFF7123A2A2
(1595875041.362728) can0 548#000001000000A2A2
(1595875041.363047) can0 578#0906B7C000A2A2A2
(1595875041.363336) can0 58F#8002A2A2A2A2A2A2
(1595875041.363695) can0 558#C1FF3B00CF07A2A2
(1595875041.363997) can0 588#03FF32000000A2A2
(1595875041.367515) can0 58F#890101A2A2A2A2A2
(1595875041.400047) can0 57F#00A2A2A2A2A2A2A2
(1595875041.462421) can0 568#0000FFFF7123A2A2
(1595875041.462720) can0 548#000001000000A2A2
(1595875041.463014) can0 578#0906B7C000A2A2A2
(1595875041.463327) can0 58F#8002A2A2A2A2A2A2
(1595875041.484536) can0 121#103F400111580000
(1595875041.485115) can0 521#300100A2A2A2A2A2
(1595875041.485806) can0 121#2100000000000000
(1595875041.486440) can0 521#300100A2A2A2A2A2
(1595875041.486629) can0 121#22000000000C0000
(1595875041.487056) can0 521#300100A2A2A2A2A2
(1595875041.487756) can0 121#2300000000002000
(1595875041.488371) can0 521#300100A2A2A2A2A2
(1595875041.488557) can0 121#2420002000200020
(1595875041.488967) can0 521#300100A2A2A2A2A2
(1595875041.489636) can0 121#2500200020002000
(1595875041.490128) can0 521#300100A2A2A2A2A2
(1595875041.490826) can0 121#2620002000200020
(1595875041.491368) can0 521#300100A2A2A2A2A2
(1595875041.491554) can0 121#2700200020002000
(1595875041.492008) can0 521#300100A2A2A2A2A2
(1595875041.492703) can0 121#2820002000200020
(1595875041.493111) can0 521#300100A2A2A2A2A2
(1595875041.493801) can0 121#290C818181818181
(1595875041.494217) can0 521#74A2A2A2A2A2A2A2
(1595875041.497019) can0 1C1#03600200A2A2A2A2
(1595875041.497412) can0 5C1#7481818181818181
(1595875041.562402) can0 568#0000FFFF7123A2A2
(1595875041.562722) can0 548#000001000000A2A2
(1595875041.562942) can0 578#0906B7C000A2A2A2
(1595875041.563287) can0 58F#8002A2A2A2A2A2A2
(1595875041.584530) can0 121#103F400111580000
(1595875041.585089) can0 521#300100A2A2A2A2A2
(1595875041.585787) can0 121#2100000000000000
(1595875041.586402) can0 521#300100A2A2A2A2A2
(1595875041.586588) can0 121#22000000000C0000
(1595875041.586961) can0 521#300100A2A2A2A2A2
(1595875041.587651) can0 121#2300000000002000
(1595875041.588072) can0 521#300100A2A2A2A2A2
(1595875041.588804) can0 121#2420002000200020
(1595875041.589339) can0 521#300100A2A2A2A2A2
(1595875041.589523) can0 121#2500200020002000
(1595875041.590126) can0 521#300100A2A2A2A2A2
(1595875041.590820) can0 121#2620002000200020
(1595875041.591356) can0 521#300100A2A2A2A2A2
(1595875041.591541) can0 121#2700200020002000
(1595875041.591958) can0 521#300100A2A2A2A2A2
(1595875041.592652) can0 121#2820002000200049
(1595875041.593081) can0 521#300100A2A2A2A2A2
(1595875041.593763) can0 121#290C818181818181
(1595875041.594157) can0 521#74A2A2A2A2A2A2A2
(1595875041.597016) can0 1C1#03600200A2A2A2A2
(1595875041.597437) can0 5C1#7481818181818181
(1595875041.662359) can0 568#0000FFFF7123A2A2
(1595875041.662579) can0 548#000001000000A2A2
(1595875041.662955) can0 578#0906B7C000A2A2A2
(1595875041.663271) can0 58F#8002A2A2A2A2A2A2
(1595875041.679578) can0 5B8#1081818181818181
(1595875041.684525) can0 121#103F400111580000
(1595875041.685161) can0 521#300100A2A2A2A2A2
(1595875041.685857) can0 121#2100000000000000
(1595875041.686371) can0 521#300100A2A2A2A2A2
(1595875041.686554) can0 121#22000000000C0000
(1595875041.686961) can0 521#300100A2A2A2A2A2
(1595875041.687660) can0 121#2300000000002000
(1595875041.688073) can0 521#300100A2A2A2A2A2
(1595875041.688809) can0 121#2420002000200020
(1595875041.689338) can0 521#300100A2A2A2A2A2
(1595875041.689523) can0 121#2500200020002000
(1595875041.690095) can0 521#300100A2A2A2A2A2
(1595875041.690789) can0 121#2620002000200020
(1595875041.691362) can0 521#300100A2A2A2A2A2
(1595875041.691545) can0 121#2700200020002000
(1595875041.691989) can0 521#300100A2A2A2A2A2
(1595875041.692678) can0 121#282000200049004E
(1595875041.693103) can0 521#300100A2A2A2A2A2
(1595875041.693786) can0 121#290C818181818181
(1595875041.694219) can0 521#74A2A2A2A2A2A2A2
(1595875041.697115) can0 1C1#03600200A2A2A2A2
(1595875041.697486) can0 5C1#7481818181818181
(1595875041.762341) can0 568#0000FFFF7123A2A2
(1595875041.762562) can0 548#000001000000A2A2
(1595875041.762938) can0 578#0906B7C000A2A2A2
(1595875041.763234) can0 58F#8002A2A2A2A2A2A2
(1595875041.784526) can0 121#103F400111580000
(1595875041.785053) can0 521#300100A2A2A2A2A2
(1595875041.785749) can0 121#2100000000000000
(1595875041.786161) can0 521#300100A2A2A2A2A2
(1595875041.786868) can0 121#22000000000C0000
(1595875041.787483) can0 521#300100A2A2A2A2A2
(1595875041.787668) can0 121#2300000000002000
(1595875041.788109) can0 521#300100A2A2A2A2A2
(1595875041.788840) can0 121#2420002000200020
(1595875041.789347) can0 521#300100A2A2A2A2A2
(1595875041.789533) can0 121#2500200020002000
(1595875041.790054) can0 521#300100A2A2A2A2A2
(1595875041.790748) can0 121#2620002000200020
(1595875041.791160) can0 521#300100A2A2A2A2A2
(1595875041.791855) can0 121#2700200020002000
(1595875041.792504) can0 521#300100A2A2A2A2A2
(1595875041.792689) can0 121#28200049004E0054
(1595875041.793129) can0 521#300100A2A2A2A2A2
(1595875041.793814) can0 121#290C818181818181
(1595875041.794220) can0 521#74A2A2A2A2A2A2A2
(1595875041.796973) can0 1C1#03600200A2A2A2A2
(1595875041.797450) can0 5C1#7481818181818181
(1595875041.862328) can0 568#0000FFFF7123A2A2
(1595875041.862640) can0 548#000001000000A2A2
(1595875041.863028) can0 578#0906B7C000A2A2A2
(1595875041.863327) can0 58F#8002A2A2A2A2A2A2
(1595875041.863616) can0 558#C1FF3B00CF07A2A2
(1595875041.863939) can0 588#03FF32000000A2A2
(1595875041.884529) can0 121#103F400111580000
(1595875041.885037) can0 521#300100A2A2A2A2A2
(1595875041.885731) can0 121#2100000000000000
(1595875041.886371) can0 521#300100A2A2A2A2A2
(1595875041.886578) can0 121#22000000000C0000
(1595875041.886989) can0 521#300100A2A2A2A2A2
(1595875041.887689) can0 121#2300000000002000
(1595875041.888102) can0 521#300100A2A2A2A2A2
(1595875041.888834) can0 121#2420002000200020
(1595875041.889331) can0 521#300100A2A2A2A2A2
(1595875041.889514) can0 121#2500200020002000
(1595875041.890024) can0 521#300100A2A2A2A2A2
(1595875041.890717) can0 121#2620002000200020
(1595875041.891149) can0 521#300100A2A2A2A2A2
(1595875041.891843) can0 121#2700200020002000
(1595875041.892496) can0 521#300100A2A2A2A2A2
(1595875041.892679) can0 121#2849004E0054004F
(1595875041.893136) can0 521#300100A2A2A2A2A2
(1595875041.893819) can0 121#290C818181818181
(1595875041.894228) can0 521#74A2A2A2A2A2A2A2
(1595875041.897054) can0 1C1#03600200A2A2A2A2
(1595875041.897530) can0 5C1#7481818181818181
(1595875041.899971) can0 57F#00A2A2A2A2A2A2A2
(1595875041.962326) can0 568#0000FFFF7123A2A2
(1595875041.962634) can0 548#000001000000A2A2
(1595875041.962856) can0 578#0906B7C000A2A2A2
(1595875041.963197) can0 58F#8002A2A2A2A2A2A2
(1595875041.984525) can0 121#103F400111580000
(1595875041.985112) can0 521#300100A2A2A2A2A2
(1595875041.985808) can0 121#2100000000000000
(1595875041.986364) can0 521#300100A2A2A2A2A2
(1595875041.986547) can0 121#22000000000C0000
(1595875041.986949) can0 521#300100A2A2A2A2A2
(1595875041.987650) can0 121#2300000000002000
(1595875041.988131) can0 521#300100A2A2A2A2A2
(1595875041.988863) can0 121#2420002000200020
(1595875041.989350) can0 521#300100A2A2A2A2A2
(1595875041.989534) can0 121#2500200020002000
(1595875041.990004) can0 521#300100A2A2A2A2A2
(1595875041.990696) can0 121#2620002000200020
(1595875041.991154) can0 521#300100A2A2A2A2A2
(1595875041.991843) can0 121#2700200020004900
(1595875041.992468) can0 521#300100A2A2A2A2A2
(1595875041.992653) can0 121#284E0054004F0020
(1595875041.993099) can0 521#300100A2A2A2A2A2
(1595875041.993787) can0 121#290C818181818181
(1595875041.994221) can0 521#74A2A2A2A2A2A2A2
(1595875041.997345) can0 1C1#03600200A2A2A2A2
(1595875041.997715) can0 5C1#7481818181818181
(1595875042.062282) can0 568#0000FFFF7123A2A2
(1595875042.062509) can0 548#000001000000A2A2
(1595875042.062851) can0 578#0906B7C000A2A2A2
(1595875042.063151) can0 58F#8002A2A2A2A2A2A2
(1595875042.084525) can0 121#103F400111580000
(1595875042.085025) can0 521#300100A2A2A2A2A2
(1595875042.085768) can0 121#2100000000000000
(1595875042.086345) can0 521#300100A2A2A2A2A2
(1595875042.086530) can0 121#22000000000C0000
(1595875042.086980) can0 521#300100A2A2A2A2A2
(1595875042.087720) can0 121#2300000000002000
(1595875042.088128) can0 521#300100A2A2A2A2A2
(1595875042.088925) can0 121#2420002000200020
(1595875042.089498) can0 521#300100A2A2A2A2A2
(1595875042.089685) can0 121#2500200020002000
(1595875042.090116) can0 521#300100A2A2A2A2A2
(1595875042.090814) can0 121#2620002000200020
(1595875042.091338) can0 521#300100A2A2A2A2A2
(1595875042.091522) can0 121#2700200049004E00
(1595875042.091950) can0 521#300100A2A2A2A2A2
(1595875042.092642) can0 121#2854004F00200054
(1595875042.093079) can0 521#300100A2A2A2A2A2
(1595875042.093767) can0 121#290C818181818181
(1595875042.094168) can0 521#74A2A2A2A2A2A2A2
(1595875042.096998) can0 1C1#03600200A2A2A2A2
(1595875042.097382) can0 5C1#7481818181818181
(1595875042.162273) can0 568#0000FFFF7123A2A2
(1595875042.162591) can0 548#000001000000A2A2
(1595875042.162979) can0 578#0906B7C000A2A2A2
(1595875042.163274) can0 58F#8002A2A2A2A2A2A2
(1595875042.179618) can0 5B8#1081818181818181
(1595875042.184528) can0 121#103F400111580000
(1595875042.184973) can0 521#300100A2A2A2A2A2
(1595875042.185724) can0 121#2100000000000000
(1595875042.186188) can0 521#300100A2A2A2A2A2
(1595875042.186891) can0 121#22000000000C0000
(1595875042.187513) can0 521#300100A2A2A2A2A2
(1595875042.187694) can0 121#2300000000002000
(1595875042.188127) can0 521#300100A2A2A2A2A2
(1595875042.188844) can0 121#2420002000200020
(1595875042.189208) can0 521#300100A2A2A2A2A2
(1595875042.190057) can0 121#2500200020002000
(1595875042.190616) can0 521#300100A2A2A2A2A2
(1595875042.190805) can0 121#2620002000200020
(1595875042.191343) can0 521#300100A2A2A2A2A2
(1595875042.191550) can0 121#270049004E005400
(1595875042.191936) can0 521#300100A2A2A2A2A2
(1595875042.192619) can0 121#284F002000540048
(1595875042.193033) can0 521#300100A2A2A2A2A2
(1595875042.193718) can0 121#290C818181818181
(1595875042.194130) can0 521#74A2A2A2A2A2A2A2
(1595875042.196952) can0 1C1#03600200A2A2A2A2
(1595875042.197351) can0 5C1#7481818181818181
(1595875042.262263) can0 568#0000FFFF7123A2A2
(1595875042.262487) can0 548#000001000000A2A2
(1595875042.262860) can0 578#0906B7C000A2A2A2
(1595875042.263103) can0 58F#8002A2A2A2A2A2A2
(1595875042.284508) can0 121#103F400111580000
(1595875042.285059) can0 521#300100A2A2A2A2A2
(1595875042.285872) can0 121#2100000000000000
(1595875042.286291) can0 521#300100A2A2A2A2A2
(1595875042.287005) can0 121#22000000000C0000
(1595875042.287400) can0 521#300100A2A2A2A2A2
(1595875042.288087) can0 121#2300000000002000
(1595875042.288674) can0 521#300100A2A2A2A2A2
(1595875042.288900) can0 121#2420002000200020
(1595875042.289307) can0 521#300100A2A2A2A2A2
(1595875042.290068) can0 121#2500200020002000
(1595875042.290655) can0 521#300100A2A2A2A2A2
(1595875042.290851) can0 121#2620002000200049
(1595875042.291463) can0 521#300100A2A2A2A2A2
(1595875042.291650) can0 121#27004E0054004F00
(1595875042.292346) can0 521#300100A2A2A2A2A2
(1595875042.292531) can0 121#2820005400480045
(1595875042.292955) can0 521#300100A2A2A2A2A2
(1595875042.293713) can0 121#290C818181818181
(1595875042.294131) can0 521#74A2A2A2A2A2A2A2
(1595875042.296992) can0 1C1#03600200A2A2A2A2
(1595875042.297345) can0 5C1#7481818181818181
(1595875042.362222) can0 568#0000FFFF7123A2A2
(1595875042.362523) can0 548#000001000000A2A2
(1595875042.362850) can0 578#0906B7C000A2A2A2
(1595875042.363142) can0 58F#8002A2A2A2A2A2A2
(1595875042.363477) can0 558#C1FF3B00CF07A2A2
(1595875042.363829) can0 588#03FF32000000A2A2
(1595875042.384526) can0 121#103F400111580000
(1595875042.384959) can0 521#300100A2A2A2A2A2
(1595875042.386521) can0 121#2100000000000000
(1595875042.387181) can0 521#300100A2A2A2A2A2
(1595875042.387880) can0 121#22000000000C0000
(1595875042.388429) can0 521#300100A2A2A2A2A2
(1595875042.388615) can0 121#2300000000002000
(1595875042.389096) can0 521#300100A2A2A2A2A2
(1595875042.389790) can0 121#2420002000200020
(1595875042.390339) can0 521#300100A2A2A2A2A2
(1595875042.390522) can0 121#2500200020002000
(1595875042.391067) can0 521#300100A2A2A2A2A2
(1595875042.391755) can0 121#262000200049004E
(1595875042.392380) can0 521#300100A2A2A2A2A2
(1595875042.392563) can0 121#270054004F002000
(1595875042.393030) can0 521#300100A2A2A2A2A2
(1595875042.393718) can0 121#2854004800450020
(1595875042.394122) can0 521#300100A2A2A2A2A2
(1595875042.395043) can0 121#290C818181818181
(1595875042.395441) can0 521#74A2A2A2A2A2A2A2
(1595875042.398203) can0 1C1#03600200A2A2A2A2
(1595875042.398566) can0 5C1#7481818181818181
(1595875042.399840) can0 57F#00A2A2A2A2A2A2A2
(1595875042.462229) can0 568#0000FFFF7123A2A2
(1595875042.462450) can0 548#000001000000A2A2
(1595875042.462843) can0 578#0906B7C000A2A2A2
(1595875042.463142) can0 58F#8002A2A2A2A2A2A2
(1595875042.484520) can0 121#103F400111580000
(1595875042.484931) can0 521#300100A2A2A2A2A2
(1595875042.486524) can0 121#2100000000000000
(1595875042.486943) can0 521#300100A2A2A2A2A2
(1595875042.487669) can0 121#22000000000C0000
(1595875042.488092) can0 521#300100A2A2A2A2A2
(1595875042.488825) can0 121#2300000000002000
(1595875042.489338) can0 521#300100A2A2A2A2A2
(1595875042.489521) can0 121#2420002000200020
(1595875042.489941) can0 521#300100A2A2A2A2A2
(1595875042.490631) can0 121#2500200020002000
(1595875042.491059) can0 521#300100A2A2A2A2A2
(1595875042.491735) can0 121#26200049004E0054
(1595875042.492501) can0 521#300100A2A2A2A2A2
(1595875042.492682) can0 121#27004F0020005400
(1595875042.493339) can0 521#300100A2A2A2A2A2
(1595875042.493521) can0 121#2848004500200055
(1595875042.493941) can0 521#300100A2A2A2A2A2
(1595875042.494621) can0 121#290C818181818181
(1595875042.495041) can0 521#74A2A2A2A2A2A2A2
(1595875042.497797) can0 1C1#03600200A2A2A2A2
(1595875042.498164) can0 5C1#7481818181818181
(1595875042.562177) can0 568#0000FFFF7123A2A2
(1595875042.562487) can0 548#000001000000A2A2
(1595875042.562688) can0 578#0906B7C000A2A2A2
(1595875042.563058) can0 58F#8002A2A2A2A2A2A2
(1595875042.584506) can0 121#103F400111580000
(1595875042.584984) can0 521#300100A2A2A2A2A2
(1595875042.586512) can0 121#2100000000000000
(1595875042.586952) can0 521#300100A2A2A2A2A2
(1595875042.587682) can0 121#22000000000C0000
(1595875042.588160) can0 521#300100A2A2A2A2A2
(1595875042.588856) can0 121#2300000000002000
(1595875042.589348) can0 521#300100A2A2A2A2A2
(1595875042.589525) can0 121#2420002000200020
(1595875042.589967) can0 521#300100A2A2A2A2A2
(1595875042.590646) can0 121#2500200020002000
(1595875042.591066) can0 521#300100A2A2A2A2A2
(1595875042.591738) can0 121#2649004E0054004F
(1595875042.592490) can0 521#300100A2A2A2A2A2
(1595875042.592677) can0 121#2700200054004800
(1595875042.593026) can0 521#300100A2A2A2A2A2
(1595875042.593756) can0 121#284500200055004E
(1595875042.594209) can0 521#300100A2A2A2A2A2
(1595875042.594931) can0 121#290C818181818181
(1595875042.595341) can0 521#74A2A2A2A2A2A2A2
(1595875042.598135) can0 1C1#03600200A2A2A2A2
(1595875042.598536) can0 5C1#7481818181818181
(1595875042.662182) can0 568#0000FFFF7123A2A2
(1595875042.662397) can0 548#000001000000A2A2
(1595875042.662757) can0 578#0906B7C000A2A2A2
(1595875042.663046) can0 58F#8002A2A2A2A2A2A2
(1595875042.679653) can0 5B8#1081818181818181
(1595875042.684527) can0 121#103F400111580000
(1595875042.684941) can0 521#300100A2A2A2A2A2
(1595875042.685623) can0 121#2100000000000000
(1595875042.686073) can0 521#300100A2A2A2A2A2
(1595875042.686814) can0 121#22000000000C0000
(1595875042.687377) can0 521#300100A2A2A2A2A2
(1595875042.687561) can0 121#2300000000002000
(1595875042.687981) can0 521#300100A2A2A2A2A2
(1595875042.688846) can0 121#2420002000200020
(1595875042.689146) can0 521#300100A2A2A2A2A2
(1595875042.689850) can0 121#2500200020004900
(1595875042.690327) can0 521#300100A2A2A2A2A2
(1595875042.690510) can0 121#264E0054004F0020
(1595875042.690986) can0 521#300100A2A2A2A2A2
(1595875042.691717) can0 121#2700540048004500
(1595875042.692349) can0 521#300100A2A2A2A2A2
(1595875042.692532) can0 121#28200055004E004B
(1595875042.692987) can0 521#300100A2A2A2A2A2
(1595875042.693716) can0 121#290C818181818181
(1595875042.694132) can0 521#74A2A2A2A2A2A2A2
(1595875042.697172) can0 1C1#03600200A2A2A2A2
(1595875042.697683) can0 5C1#7481818181818181
(1595875042.762146) can0 568#0000FFFF7123A2A2
(1595875042.762446) can0 548#000001000000A2A2
(1595875042.762737) can0 578#0906B7C000A2A2A2
(1595875042.763029) can0 58F#8002A2A2A2A2A2A2
(1595875042.784530) can0 121#103F400111580000
(1595875042.784922) can0 521#300100A2A2A2A2A2
(1595875042.785617) can0 121#2100000000000000
(1595875042.786025) can0 521#300100A2A2A2A2A2
(1595875042.786771) can0 121#22000000000C0000
(1595875042.787368) can0 521#300100A2A2A2A2A2
(1595875042.787551) can0 121#2300000000002000
(1595875042.788008) can0 521#300100A2A2A2A2A2
(1595875042.788787) can0 121#2420002000200020
(1595875042.789206) can0 521#300100A2A2A2A2A2
(1595875042.789928) can0 121#2500200049004E00
(1595875042.790579) can0 521#300100A2A2A2A2A2
(1595875042.790763) can0 121#2654004F00200054
(1595875042.791096) can0 521#300100A2A2A2A2A2
(1595875042.791819) can0 121#2700480045002000
(1595875042.792398) can0 521#300100A2A2A2A2A2
(1595875042.792580) can0 121#2855004E004B004E
(1595875042.793003) can0 521#300100A2A2A2A2A2
(1595875042.793732) can0 121#290C818181818181
(1595875042.794161) can0 521#74A2A2A2A2A2A2A2
(1595875042.797208) can0 1C1#03600200A2A2A2A2
(1595875042.797582) can0 5C1#7481818181818181
(1595875042.862143) can0 568#0000FFFF7123A2A2
(1595875042.862442) can0 548#000001000000A2A2
(1595875042.862731) can0 578#0906B7C000A2A2A2
(1595875042.863051) can0 58F#8002A2A2A2A2A2A2
(1595875042.863340) can0 558#C1FF3B00CF07A2A2
(1595875042.863668) can0 588#03FF32000000A2A2
(1595875042.884523) can0 121#103F400111580000
(1595875042.885040) can0 521#300100A2A2A2A2A2
(1595875042.885739) can0 121#2100000000000000
(1595875042.886347) can0 521#300100A2A2A2A2A2
(1595875042.886497) can0 121#22000000000C0000
(1595875042.887120) can0 521#300100A2A2A2A2A2
(1595875042.887886) can0 121#2300000000002000
(1595875042.888469) can0 521#300100A2A2A2A2A2
(1595875042.888622) can0 121#2420002000200020
(1595875042.889112) can0 521#300100A2A2A2A2A2
(1595875042.889833) can0 121#250049004E005400
(1595875042.890423) can0 521#300100A2A2A2A2A2
(1595875042.890575) can0 121#264F002000540048
(1595875042.891128) can0 521#300100A2A2A2A2A2
(1595875042.891823) can0 121#2700450020005500
(1595875042.892409) can0 521#300100A2A2A2A2A2
(1595875042.892562) can0 121#284E004B004E004F
(1595875042.893022) can0 521#300100A2A2A2A2A2
(1595875042.893773) can0 121#290C818181818181
(1595875042.894189) can0 521#74A2A2A2A2A2A2A2
(1595875042.897154) can0 1C1#03600200A2A2A2A2
(1595875042.897538) can0 5C1#7481818181818181
(1595875042.899759) can0 57F#00A2A2A2A2A2A2A2
(1595875042.962123) can0 568#0000FFFF7123A2A2
(1595875042.962346) can0 548#000001000000A2A2
(1595875042.962733) can0 578#0906B7C000A2A2A2
(1595875042.963039) can0 58F#8002A2A2A2A2A2A2
(1595875042.984514) can0 121#103F400111580000
(1595875042.984922) can0 521#300100A2A2A2A2A2
(1595875042.985720) can0 121#2100000000000000
(1595875042.986126) can0 521#300100A2A2A2A2A2
(1595875042.986883) can0 121#22000000000C0000
(1595875042.987507) can0 521#300100A2A2A2A2A2
(1595875042.987693) can0 121#2300000000002000
(1595875042.988125) can0 521#300100A2A2A2A2A2
(1595875042.988846) can0 121#2420002000200049
(1595875042.989402) can0 521#300100A2A2A2A2A2
(1595875042.989587) can0 121#25004E0054004F00
(1595875042.990120) can0 521#300100A2A2A2A2A2
(1595875042.990805) can0 121#2620005400480045
(1595875042.991337) can0 521#300100A2A2A2A2A2
(1595875042.991528) can0 121#2700200055004E00
(1595875042.992336) can0 521#300100A2A2A2A2A2
(1595875042.992523) can0 121#284B004E004F0057
(1595875042.992952) can0 521#300100A2A2A2A2A2
(1595875042.993639) can0 121#290C818181818181
(1595875042.994052) can0 521#74A2A2A2A2A2A2A2
(1595875042.997109) can0 1C1#03600200A2A2A2A2
(1595875042.997503) can0 5C1#7481818181818181
(1595875043.062099) can0 568#0000FFFF7123A2A2
(1595875043.062460) can0 548#000001000000A2A2
(1595875043.062777) can0 578#0906B7C000A2A2A2
(1595875043.063089) can0 58F#8002A2A2A2A2A2A2
(1595875043.084509) can0 121#103F400111580000
(1595875043.084932) can0 521#300100A2A2A2A2A2
(1595875043.085700) can0 121#2100000000000000
(1595875043.086344) can0 521#300100A2A2A2A2A2
(1595875043.086521) can0 121#22000000000C0000
(1595875043.087109) can0 521#300100A2A2A2A2A2
(1595875043.087944) can0 121#2300000000002000
(1595875043.088537) can0 521#300100A2A2A2A2A2
(1595875043.088807) can0 121#242000200049004E
(1595875043.089138) can0 521#300100A2A2A2A2A2
(1595875043.089925) can0 121#250054004F002000
(1595875043.090541) can0 521#300100A2A2A2A2A2
(1595875043.090732) can0 121#2654004800450020
(1595875043.091172) can0 521#300100A2A2A2A2A2
(1595875043.091871) can0 121#270055004E004B00
(1595875043.092485) can0 521#300100A2A2A2A2A2
(1595875043.092673) can0 121#284E004F0057004E
(1595875043.093081) can0 521#300100A2A2A2A2A2
(1595875043.093769) can0 121#290C818181818181
(1595875043.094171) can0 521#74A2A2A2A2A2A2A2
(1595875043.097164) can0 1C1#03600200A2A2A2A2
(1595875043.097553) can0 5C1#7481818181818181
(1595875043.162092) can0 568#0000FFFF7123A2A2
(1595875043.162317) can0 548#000001000000A2A2
(1595875043.162666) can0 578#0906B7C000A2A2A2
(1595875043.162962) can0 58F#8002A2A2A2A2A2A2
(1595875043.179695) can0 5B8#1081818181818181
(1595875043.184515) can0 121#103F400111580000
(1595875043.184925) can0 521#300100A2A2A2A2A2
(1595875043.185626) can0 121#2100000000000000
(1595875043.186041) can0 521#300100A2A2A2A2A2
(1595875043.186736) can0 121#22000000000C0000
(1595875043.187156) can0 521#300100A2A2A2A2A2
(1595875043.187855) can0 121#2300000000002000
(1595875043.188391) can0 521#300100A2A2A2A2A2
(1595875043.188576) can0 121#24200049004E0054
(1595875043.189011) can0 521#300100A2A2A2A2A2
(1595875043.189695) can0 121#25004F0020005400
(1595875043.190116) can0 521#300100A2A2A2A2A2
(1595875043.190796) can0 121#2648004500200055
(1595875043.191333) can0 521#300100A2A2A2A2A2
(1595875043.191517) can0 121#27004E004B004E00
(1595875043.192132) can0 521#300100A2A2A2A2A2
(1595875043.192810) can0 121#284F0057004E0020
(1595875043.193374) can0 521#300100A2A2A2A2A2
(1595875043.193559) can0 121#290C818181818181
(1595875043.194012) can0 521#74A2A2A2A2A2A2A2
(1595875043.196848) can0 1C1#03600200A2A2A2A2
(1595875043.197226) can0 5C1#7481818181818181
(1595875043.262059) can0 568#0000FFFF7123A2A2
(1595875043.262296) can0 548#000001000000A2A2
(1595875043.262658) can0 578#0906B7C000A2A2A2
(1595875043.262958) can0 58F#8002A2A2A2A2A2A2
(1595875043.284525) can0 121#103F400111580000
(1595875043.284940) can0 521#300100A2A2A2A2A2
(1595875043.285623) can0 121#2100000000000000
(1595875043.286034) can0 521#300100A2A2A2A2A2
(1595875043.286717) can0 121#22000000000C0000
(1595875043.287127) can0 521#300100A2A2A2A2A2
(1595875043.287815) can0 121#2300000000002000
(1595875043.288407) can0 521#300100A2A2A2A2A2
(1595875043.288600) can0 121#2420004E0054004F
(1595875043.289025) can0 521#300100A2A2A2A2A2
(1595875043.289706) can0 121#2500200054004800
(1595875043.290132) can0 521#300100A2A2A2A2A2
(1595875043.290804) can0 121#264500200055004E
(1595875043.291342) can0 521#300100A2A2A2A2A2
(1595875043.291546) can0 121#27004B004E004F00
(1595875043.292340) can0 521#300100A2A2A2A2A2
(1595875043.292543) can0 121#2857004E0020002D
(1595875043.292933) can0 521#300100A2A2A2A2A2
(1595875043.293605) can0 121#290C818181818181
(1595875043.294038) can0 521#74A2A2A2A2A2A2A2
(1595875043.297067) can0 1C1#03600200A2A2A2A2
(1595875043.297443) can0 5C1#7481818181818181
(1595875043.362048) can0 568#0000FFFF7123A2A2
(1595875043.362482) can0 548#000001000000A2A2
(1595875043.362777) can0 578#0906B7C000A2A2A2
(1595875043.363067) can0 58F#8002A2A2A2A2A2A2
(1595875043.363356) can0 558#C1FF3B00CF07A2A2
(1595875043.363679) can0 588#03FF32000000A2A2
(1595875043.384519) can0 121#103F400111580000
(1595875043.384945) can0 521#300100A2A2A2A2A2
(1595875043.386522) can0 121#2100000000000000
(1595875043.387082) can0 521#300100A2A2A2A2A2
(1595875043.387782) can0 121#22000000000C0000
(1595875043.388325) can0 521#300100A2A2A2A2A2
(1595875043.388510) can0 121#2300000000002000
(1595875043.388977) can0 521#300100A2A2A2A2A2
(1595875043.389654) can0 121#24200054004F0020
(1595875043.390065) can0 521#300100A2A2A2A2A2
(1595875043.390752) can0 121#2500540048004500
(1595875043.391343) can0 521#300100A2A2A2A2A2
(1595875043.391529) can0 121#26200055004E004B
(1595875043.392335) can0 521#300100A2A2A2A2A2
(1595875043.392520) can0 121#27004E004F005700
